time	V(n001)	V(n002)	I(C1)	I(R1)	I(V1)
0.000000000000000e+00	0.000000e+00	0.000000e+00	0.000000e+00	0.000000e+00	0.000000e+00
3.766750526825223e-04	2.369014e-02	7.310352e-06	2.367327e-02	2.367327e-02	-2.367327e-02
7.533501053650447e-04	4.733660e-02	2.324985e-05	4.729003e-02	4.729003e-02	-4.729003e-02
1.130025158047567e-03	7.093936e-02	4.781849e-05	7.085026e-02	7.085026e-02	-7.085026e-02
1.506700210730089e-03	9.449844e-02	8.101627e-05	9.435397e-02	9.435397e-02	-9.435397e-02
1.883375263412612e-03	1.180138e-01	1.228432e-04	1.178012e-01	1.178012e-01	-1.178012e-01
2.260050316095134e-03	1.414855e-01	1.732993e-04	1.411918e-01	1.411918e-01	-1.411918e-01
2.636725368777655e-03	1.649135e-01	2.323845e-04	1.645260e-01	1.645260e-01	-1.645260e-01
3.613287868777655e-03	2.250843e-01	4.223143e-04	2.244502e-01	2.244502e-01	-2.244502e-01
4.589850368777655e-03	2.844079e-01	6.703222e-04	2.834700e-01	2.834700e-01	-2.834700e-01
5.566412868777655e-03	3.426611e-01	9.754166e-04	3.413633e-01	3.413633e-01	-3.413633e-01
6.542975368777655e-03	3.996246e-01	1.336391e-03	3.979121e-01	3.979121e-01	-3.979121e-01
7.519537868777655e-03	4.550840e-01	1.751828e-03	4.529039e-01	4.529039e-01	-4.529039e-01
8.496100368777655e-03	5.088305e-01	2.220107e-03	5.061316e-01	5.061316e-01	-5.061316e-01
9.472662868777655e-03	5.606619e-01	2.739408e-03	5.573950e-01	5.573950e-01	-5.573950e-01
1.044922536877766e-02	6.103832e-01	3.307716e-03	6.065011e-01	6.065011e-01	-6.065011e-01
1.142578786877766e-02	6.578070e-01	3.922836e-03	6.532652e-01	6.532652e-01	-6.532652e-01
1.337891286877766e-02	7.450581e-01	5.283853e-03	7.390732e-01	7.390732e-01	-7.390732e-01
1.533203786877766e-02	8.211027e-01	6.801524e-03	8.135287e-01	8.135287e-01	-8.135287e-01
1.728516286877765e-02	8.847973e-01	8.452561e-03	8.755122e-01	8.755122e-01	-8.755122e-01
1.923828786877765e-02	9.351836e-01	1.021167e-02	9.240921e-01	9.240921e-01	-9.240921e-01
2.119141286877765e-02	9.715040e-01	1.205194e-02	9.585379e-01	9.585379e-01	-9.585379e-01
2.314453786877765e-02	9.932120e-01	1.394523e-02	9.783322e-01	9.783322e-01	-9.783322e-01
2.509766286877765e-02	9.999812e-01	1.586260e-02	9.831777e-01	9.831777e-01	-9.831777e-01
2.705078786877765e-02	9.917097e-01	1.777476e-02	9.730018e-01	9.730018e-01	-9.730018e-01
2.900391286877765e-02	9.685220e-01	1.965249e-02	9.479582e-01	9.479582e-01	-9.479582e-01
3.095703786877765e-02	9.307668e-01	2.146710e-02	9.084239e-01	9.084239e-01	-9.084239e-01
3.291016286877765e-02	8.790120e-01	2.319084e-02	8.549941e-01	8.549941e-01	-8.549941e-01
3.486328786877765e-02	8.140361e-01	2.479733e-02	7.884728e-01	7.884728e-01	-7.884728e-01
3.681641286877765e-02	7.368163e-01	2.626196e-02	7.098610e-01	7.098610e-01	-7.098610e-01
3.876953786877765e-02	6.485141e-01	2.756224e-02	6.203417e-01	6.203417e-01	-6.203417e-01
4.072266286877765e-02	5.504576e-01	2.867816e-02	5.212615e-01	5.212615e-01	-5.212615e-01
4.267578786877765e-02	4.441218e-01	2.959250e-02	4.141114e-01	4.141114e-01	-4.141114e-01
4.462891286877765e-02	3.311059e-01	3.029105e-02	3.005033e-01	3.005033e-01	-3.005033e-01
4.658203786877765e-02	2.131099e-01	3.076286e-02	1.821465e-01	1.821465e-01	-1.821465e-01
4.853516286877765e-02	9.190854e-02	3.100039e-02	6.082167e-02	6.082167e-02	-6.082167e-02
4.951172536877765e-02	3.067439e-02	3.102990e-02	-3.843751e-04	-3.843751e-04	3.843751e-04
5.146485036877765e-02	-9.190937e-02	3.090958e-02	-1.227325e-01	-1.227325e-01	1.227325e-01
5.341797536877765e-02	-2.131107e-01	3.055166e-02	-2.434619e-01	-2.434619e-01	2.434619e-01
5.537110036877765e-02	-3.311067e-01	2.996108e-02	-3.607562e-01	-3.607562e-01	3.607562e-01
5.732422536877765e-02	-4.441225e-01	2.914627e-02	-4.728509e-01	-4.728509e-01	4.728509e-01
5.927735036877765e-02	-5.504583e-01	2.811905e-02	-5.780594e-01	-5.780594e-01	5.780594e-01
6.123047536877765e-02	-6.485147e-01	2.689443e-02	-6.747990e-01	-6.747990e-01	6.747990e-01
6.318360036877765e-02	-7.368168e-01	2.549039e-02	-7.616140e-01	-7.616140e-01	7.616140e-01
6.513672536877765e-02	-8.140365e-01	2.392760e-02	-8.371982e-01	-8.371982e-01	8.371982e-01
6.708985036877765e-02	-8.790124e-01	2.222914e-02	-9.004145e-01	-9.004145e-01	9.004145e-01
6.904297536877765e-02	-9.307671e-01	2.042012e-02	-9.503114e-01	-9.503114e-01	9.503114e-01
7.099610036877765e-02	-9.685222e-01	1.852730e-02	-9.861382e-01	-9.861382e-01	9.861382e-01
7.294922536877765e-02	-9.917098e-01	1.657872e-02	-1.007355e+00	-1.007355e+00	1.007355e+00
7.490235036877765e-02	-9.999812e-01	1.460325e-02	-1.013644e+00	-1.013644e+00	1.013644e+00
7.685547536877765e-02	-9.932119e-01	1.263018e-02	-1.004907e+00	-1.004907e+00	1.004907e+00
7.880860036877765e-02	-9.715038e-01	1.068874e-02	-9.812784e-01	-9.812784e-01	9.812784e-01
8.076172536877765e-02	-9.351833e-01	8.807712e-03	-9.431111e-01	-9.431111e-01	9.431111e-01
8.271485036877765e-02	-8.847969e-01	7.014947e-03	-8.909793e-01	-8.909793e-01	8.909793e-01
8.466797536877765e-02	-8.211023e-01	5.336981e-03	-8.256667e-01	-8.256667e-01	8.256667e-01
8.662110036877765e-02	-7.450575e-01	3.798624e-03	-7.481551e-01	-7.481551e-01	7.481551e-01
8.759766286877765e-02	-7.027544e-01	3.088987e-03	-7.051822e-01	-7.051822e-01	7.051822e-01
8.857422536877765e-02	-6.578064e-01	2.422584e-03	-6.596100e-01	-6.596100e-01	6.596100e-01
8.955078786877765e-02	-6.103825e-01	1.801871e-03	-6.116101e-01	-6.116101e-01	6.116101e-01
9.052735036877765e-02	-5.606613e-01	1.229131e-03	-5.613628e-01	-5.613628e-01	5.613628e-01
9.150391286877765e-02	-5.088298e-01	7.064646e-04	-5.090575e-01	-5.090575e-01	5.090575e-01
9.248047536877765e-02	-4.550832e-01	2.357867e-04	-4.548908e-01	-4.548908e-01	4.548908e-01
9.345703786877765e-02	-3.996238e-01	-1.811847e-04	-3.990666e-01	-3.990666e-01	3.990666e-01
9.443360036877765e-02	-3.426603e-01	-5.429335e-04	-3.417950e-01	-3.417950e-01	3.417950e-01
9.541016286877765e-02	-2.844071e-01	-8.481514e-04	-2.832914e-01	-2.832914e-01	2.832914e-01
9.638672536877765e-02	-2.250835e-01	-1.095743e-03	-2.237760e-01	-2.237760e-01	2.237760e-01
9.736328786877765e-02	-1.649127e-01	-1.284829e-03	-1.634727e-01	-1.634727e-01	1.634727e-01
9.833985036877765e-02	-1.041212e-01	-1.414752e-03	-1.026085e-01	-1.026085e-01	1.026085e-01
9.931641286877765e-02	-4.293784e-02	-1.485074e-03	-4.141236e-02	-4.141236e-02	4.141236e-02
1.002929753687777e-01	1.840715e-02	-1.495586e-03	1.988541e-02	1.988541e-02	-1.988541e-02
1.012695378687777e-01	7.968285e-02	-1.446299e-03	8.105417e-02	8.105417e-02	-8.105417e-02
1.022461003687777e-01	1.406586e-01	-1.337452e-03	1.418637e-01	1.418637e-01	-1.418637e-01
1.032226628687777e-01	2.011050e-01	-1.169508e-03	2.020853e-01	2.020853e-01	-2.020853e-01
1.041992253687777e-01	2.607945e-01	-9.431519e-04	2.614923e-01	2.614923e-01	-2.614923e-01
1.051757878687777e-01	3.195024e-01	-6.592879e-04	3.198611e-01	3.198611e-01	-3.198611e-01
1.061523503687777e-01	3.770078e-01	-3.190374e-04	3.769721e-01	3.769721e-01	-3.769721e-01
1.071289128687777e-01	4.330942e-01	7.626662e-05	4.326104e-01	4.326104e-01	-4.326104e-01
1.081054753687777e-01	4.875505e-01	5.250836e-04	4.865667e-01	4.865667e-01	-4.865667e-01
1.090820378687777e-01	5.401718e-01	1.025672e-03	5.386379e-01	5.386379e-01	-5.386379e-01
1.100586003687777e-01	5.907601e-01	1.576095e-03	5.886281e-01	5.886281e-01	-5.886281e-01
1.110351628687777e-01	6.391248e-01	2.174228e-03	6.363491e-01	6.363491e-01	-6.363491e-01
1.120117253687777e-01	6.850840e-01	2.817768e-03	6.816216e-01	6.816216e-01	-6.816216e-01
1.129882878687777e-01	7.284647e-01	3.504241e-03	7.242750e-01	7.242750e-01	-7.242750e-01
1.149414128687777e-01	8.068478e-01	4.995289e-03	8.010933e-01	8.010933e-01	-8.010933e-01
1.168945378687777e-01	8.730952e-01	6.624528e-03	8.656491e-01	8.656491e-01	-8.656491e-01
1.188476628687777e-01	9.262104e-01	8.367036e-03	9.169718e-01	9.169718e-01	-9.169718e-01
1.208007878687777e-01	9.653946e-01	1.019619e-02	9.542900e-01	9.542900e-01	-9.542900e-01
1.227539128687777e-01	9.900582e-01	1.208406e-02	9.770426e-01	9.770426e-01	-9.770426e-01
1.247070378687777e-01	9.998306e-01	1.400184e-02	9.848880e-01	9.848880e-01	-9.848880e-01
1.266601628687777e-01	9.945645e-01	1.592027e-02	9.777085e-01	9.777085e-01	-9.777085e-01
1.286132878687777e-01	9.743393e-01	1.781008e-02	9.556124e-01	9.556124e-01	-9.556124e-01
1.305664128687777e-01	9.394591e-01	1.964245e-02	9.189327e-01	9.189327e-01	-9.189327e-01
1.325195378687777e-01	8.904485e-01	2.138938e-02	8.682213e-01	8.682213e-01	-8.682213e-01
1.344726628687777e-01	8.280448e-01	2.302421e-02	8.042414e-01	8.042414e-01	-8.042414e-01
1.364257878687777e-01	7.531865e-01	2.452194e-02	7.279559e-01	7.279559e-01	-7.279559e-01
1.383789128687777e-01	6.669996e-01	2.585962e-02	6.405123e-01	6.405123e-01	-6.405123e-01
1.403320378687777e-01	5.707804e-01	2.701673e-02	5.432266e-01	5.432266e-01	-5.432266e-01
1.422851628687777e-01	4.659761e-01	2.797546e-02	4.375622e-01	4.375622e-01	-4.375622e-01
1.442382878687777e-01	3.541631e-01	2.872098e-02	3.251089e-01	3.251089e-01	-3.251089e-01
1.461914128687777e-01	2.370232e-01	2.924168e-02	2.075585e-01	2.075585e-01	-2.075585e-01
1.481445378687777e-01	1.163182e-01	2.952932e-02	8.667945e-02	8.667945e-02	-8.667945e-02
1.491211003687777e-01	5.519483e-02	2.958412e-02	2.555877e-02	2.555877e-02	-2.555877e-02
1.510742253687777e-01	-6.744433e-02	2.951442e-02	-9.689529e-02	-9.689529e-02	9.689529e-02
1.530273503687777e-01	-1.890691e-01	2.920654e-02	-2.180977e-01	-2.180977e-01	2.180977e-01
1.549804753687777e-01	-3.078500e-01	2.866472e-02	-3.362251e-01	-3.362251e-01	3.362251e-01
1.569336003687777e-01	-4.220006e-01	2.789672e-02	-4.495003e-01	-4.495003e-01	4.495003e-01
1.588867253687777e-01	-5.298040e-01	2.691367e-02	-5.562191e-01	-5.562191e-01	5.562191e-01
1.608398503687777e-01	-6.296386e-01	2.572997e-02	-6.547761e-01	-6.547761e-01	6.547761e-01
1.627929753687777e-01	-7.200028e-01	2.436301e-02	-7.436883e-01	-7.436883e-01	7.436883e-01
1.647461003687777e-01	-7.995375e-01	2.283298e-02	-8.216182e-01	-8.216182e-01	8.216182e-01
1.666992253687777e-01	-8.670465e-01	2.116247e-02	-8.873931e-01	-8.873931e-01	8.873931e-01
1.686523503687777e-01	-9.215142e-01	1.937623e-02	-9.400234e-01	-9.400234e-01	9.400234e-01
1.706054753687777e-01	-9.621215e-01	1.750072e-02	-9.787169e-01	-9.787169e-01	9.787169e-01
1.725586003687777e-01	-9.882576e-01	1.556376e-02	-1.002891e+00	-1.002891e+00	1.002891e+00
1.745117253687777e-01	-9.995294e-01	1.359408e-02	-1.012183e+00	-1.012183e+00	1.012183e+00
1.764648503687777e-01	-9.957674e-01	1.162092e-02	-1.006451e+00	-1.006451e+00	1.006451e+00
1.784179753687777e-01	-9.770281e-01	9.673572e-03	-9.857823e-01	-9.857823e-01	9.857823e-01
1.803711003687777e-01	-9.435933e-01	7.780926e-03	-9.504864e-01	-9.504864e-01	9.504864e-01
1.823242253687777e-01	-8.959661e-01	5.971062e-03	-9.010941e-01	-9.010941e-01	9.010941e-01
1.842773503687777e-01	-8.348626e-01	4.270812e-03	-8.383479e-01	-8.383479e-01	8.383479e-01
1.862304753687777e-01	-7.612021e-01	2.705358e-03	-7.631912e-01	-7.631912e-01	7.631912e-01
1.872070378687777e-01	-7.200022e-01	1.980507e-03	-7.213053e-01	-7.213053e-01	7.213053e-01
1.881836003687777e-01	-6.760924e-01	1.297861e-03	-6.767541e-01	-6.767541e-01	6.767541e-01
1.891601628687777e-01	-6.296379e-01	6.599409e-04	-6.297054e-01	-6.297054e-01	6.297054e-01
1.901367253687777e-01	-5.808136e-01	6.910026e-05	-5.803362e-01	-5.803362e-01	5.803362e-01
1.911132878687777e-01	-5.298033e-01	-4.724859e-04	-5.288323e-01	-5.288323e-01	5.288323e-01
1.920898503687777e-01	-4.767989e-01	-9.628275e-04	-4.753874e-01	-4.753874e-01	4.753874e-01
1.930664128687777e-01	-4.219999e-01	-1.400127e-03	-4.202027e-01	-4.202027e-01	4.202027e-01
1.940429753687777e-01	-3.656126e-01	-1.782788e-03	-3.634858e-01	-3.634858e-01	3.634858e-01
1.950195378687777e-01	-3.078493e-01	-2.109417e-03	-3.054502e-01	-3.054502e-01	3.054502e-01
1.959961003687777e-01	-2.489272e-01	-2.378833e-03	-2.463141e-01	-2.463141e-01	2.463141e-01
1.969726628687777e-01	-1.890683e-01	-2.590070e-03	-1.863003e-01	-1.863003e-01	1.863003e-01
1.979492253687777e-01	-1.284977e-01	-2.742382e-03	-1.256344e-01	-1.256344e-01	1.256344e-01
1.989257878687777e-01	-6.744350e-02	-2.835243e-03	-6.454480e-02	-6.454480e-02	6.454480e-02
1.999023503687777e-01	-6.135469e-03	-2.868352e-03	-3.261344e-03	-3.261344e-03	3.261344e-03
2.008789128687777e-01	5.519566e-02	-2.841631e-03	5.798535e-02	5.798535e-02	-5.798535e-02
2.018554753687777e-01	1.163190e-01	-2.755230e-03	1.189648e-01	1.189648e-01	-1.189648e-01
2.028320378687777e-01	1.770046e-01	-2.609520e-03	1.794476e-01	1.794476e-01	-1.794476e-01
2.038086003687777e-01	2.370240e-01	-2.405100e-03	2.392061e-01	2.392061e-01	-2.392061e-01
2.047851628687777e-01	2.961513e-01	-2.142784e-03	2.980154e-01	2.980154e-01	-2.980154e-01
2.057617253687777e-01	3.541639e-01	-1.823610e-03	3.556543e-01	3.556543e-01	-3.556543e-01
2.067382878687777e-01	4.108436e-01	-1.448825e-03	4.119058e-01	4.119058e-01	-4.119058e-01
2.077148503687777e-01	4.659769e-01	-1.019887e-03	4.665583e-01	4.665583e-01	-4.665583e-01
2.086914128687777e-01	5.193564e-01	-5.384590e-04	5.194061e-01	5.194061e-01	-5.194061e-01
2.096679753687777e-01	5.707811e-01	-6.400163e-06	5.702504e-01	5.702504e-01	-5.702504e-01
2.106445378687777e-01	6.200575e-01	5.742396e-04	6.188999e-01	6.188999e-01	-6.188999e-01
2.116211003687777e-01	6.670002e-01	1.201228e-03	6.651714e-01	6.651714e-01	-6.651714e-01
2.125976628687777e-01	7.114325e-01	1.872156e-03	7.088909e-01	7.088909e-01	-7.088909e-01
2.135742253687777e-01	7.531871e-01	2.584454e-03	7.498939e-01	7.498939e-01	-7.498939e-01
2.155273503687777e-01	8.280452e-01	4.122095e-03	8.231441e-01	8.231441e-01	-8.231441e-01
2.174804753687777e-01	8.904489e-01	5.790648e-03	8.838204e-01	8.838204e-01	-8.838204e-01
2.194336003687777e-01	9.394594e-01	7.564638e-03	9.310107e-01	9.310107e-01	-9.310107e-01
2.213867253687777e-01	9.743395e-01	9.417009e-03	9.640056e-01	9.640056e-01	-9.640056e-01
2.233398503687777e-01	9.945646e-01	1.131952e-02	9.823093e-01	9.823093e-01	-9.823093e-01
2.252929753687777e-01	9.998306e-01	1.324319e-02	9.856466e-01	9.856466e-01	-9.856466e-01
2.272461003687777e-01	9.900581e-01	1.515870e-02	9.739679e-01	9.739679e-01	-9.739679e-01
2.291992253687777e-01	9.653943e-01	1.703688e-02	9.474491e-01	9.474491e-01	-9.474491e-01
2.311523503687777e-01	9.262101e-01	1.884910e-02	9.064895e-01	9.064895e-01	-9.064895e-01
2.331054753687777e-01	8.730948e-01	2.056772e-02	8.517055e-01	8.517055e-01	-8.517055e-01
2.350586003687777e-01	8.068473e-01	2.216655e-02	7.839215e-01	7.839215e-01	-7.839215e-01
2.370117253687777e-01	7.284641e-01	2.362114e-02	7.041575e-01	7.041575e-01	-7.041575e-01
2.389648503687777e-01	6.391241e-01	2.490926e-02	6.136135e-01	6.136135e-01	-6.136135e-01
2.409179753687777e-01	5.401711e-01	2.601117e-02	5.136517e-01	5.136517e-01	-5.136517e-01
2.428711003687777e-01	4.330935e-01	2.690992e-02	4.057760e-01	4.057760e-01	-4.057760e-01
2.448242253687777e-01	3.195016e-01	2.759162e-02	2.916094e-01	2.916094e-01	-2.916094e-01
2.467773503687777e-01	2.011042e-01	2.804567e-02	1.728693e-01	1.728693e-01	-1.728693e-01
2.487304753687777e-01	7.968202e-02	2.826485e-02	5.134220e-02	5.134220e-02	-5.134220e-02
2.506836003687777e-01	-4.293867e-02	2.824552e-02	-7.114379e-02	-7.114379e-02	7.114379e-02
2.526367253687777e-01	-1.649135e-01	2.798759e-02	-1.927460e-01	-1.927460e-01	1.927460e-01
2.545898503687777e-01	-2.844079e-01	2.749459e-02	-3.116349e-01	-3.116349e-01	3.116349e-01
2.565429753687777e-01	-3.996246e-01	2.677357e-02	-4.260221e-01	-4.260221e-01	4.260221e-01
2.584961003687777e-01	-5.088305e-01	2.583500e-02	-5.341867e-01	-5.341867e-01	5.341867e-01
2.604492253687777e-01	-6.103832e-01	2.469265e-02	-6.345015e-01	-6.345015e-01	6.345015e-01
2.624023503687777e-01	-7.027550e-01	2.336334e-02	-7.254571e-01	-7.254571e-01	7.254571e-01
2.643554753687777e-01	-7.845569e-01	2.186669e-02	-8.056853e-01	-8.056853e-01	8.056853e-01
2.663086003687777e-01	-8.545582e-01	2.022487e-02	-8.739790e-01	-8.739790e-01	8.739790e-01
2.682617253687777e-01	-9.117062e-01	1.846221e-02	-9.293106e-01	-9.293106e-01	9.293106e-01
2.702148503687777e-01	-9.551413e-01	1.660486e-02	-9.708474e-01	-9.708474e-01	9.708474e-01
2.721679753687777e-01	-9.842102e-01	1.468040e-02	-9.979645e-01	-9.979645e-01	9.979645e-01
2.741211003687777e-01	-9.984756e-01	1.271743e-02	-1.010254e+00	-1.010254e+00	1.010254e+00
2.760742253687777e-01	-9.977230e-01	1.074510e-02	-1.007529e+00	-1.007529e+00	1.007529e+00
2.780273503687777e-01	-9.819638e-01	8.792734e-03	-9.898326e-01	-9.898326e-01	9.898326e-01
2.799804753687777e-01	-9.514349e-01	6.889340e-03	-9.574290e-01	-9.574290e-01	9.574290e-01
2.819336003687777e-01	-9.065955e-01	5.063195e-03	-9.108056e-01	-9.108056e-01	9.108056e-01
2.838867253687777e-01	-8.481202e-01	3.341411e-03	-8.506635e-01	-8.506635e-01	8.506635e-01
2.848632878687777e-01	-8.140361e-01	2.527709e-03	-8.157978e-01	-8.157978e-01	8.157978e-01
2.858398503687777e-01	-7.768882e-01	1.749533e-03	-7.779067e-01	-7.779067e-01	7.779067e-01
2.868164128687777e-01	-7.368163e-01	1.009767e-03	-7.371327e-01	-7.371327e-01	7.371327e-01
2.877929753687777e-01	-6.939712e-01	3.111530e-04	-6.936293e-01	-6.936293e-01	6.936293e-01
2.887695378687777e-01	-6.485141e-01	-3.437247e-04	-6.475601e-01	-6.475601e-01	6.475601e-01
2.897461003687777e-01	-6.006162e-01	-9.524448e-04	-5.990986e-01	-5.990986e-01	5.990986e-01
2.907226628687777e-01	-5.504576e-01	-1.512760e-03	-5.484269e-01	-5.484269e-01	5.484269e-01
2.916992253687777e-01	-4.982273e-01	-2.022605e-03	-4.957359e-01	-4.957359e-01	4.957359e-01
2.926757878687777e-01	-4.441218e-01	-2.480105e-03	-4.412238e-01	-4.412238e-01	4.412238e-01
2.936523503687777e-01	-3.883447e-01	-2.883581e-03	-3.850957e-01	-3.850957e-01	3.850957e-01
2.946289128687777e-01	-3.311059e-01	-3.231559e-03	-3.275628e-01	-3.275628e-01	3.275628e-01
2.956054753687777e-01	-2.726209e-01	-3.522772e-03	-2.688417e-01	-2.688417e-01	2.688417e-01
2.965820378687777e-01	-2.131099e-01	-3.756168e-03	-2.091532e-01	-2.091532e-01	2.091532e-01
2.975586003687777e-01	-1.527968e-01	-3.930912e-03	-1.487221e-01	-1.487221e-01	1.487221e-01
2.985351628687777e-01	-9.190854e-02	-4.046389e-03	-8.777568e-02	-8.777568e-02	8.777568e-02
2.995117253687777e-01	-3.067439e-02	-4.102209e-03	-2.654332e-02	-2.654332e-02	2.654332e-02
3.004882878687777e-01	3.067522e-02	-4.098204e-03	3.474456e-02	3.474456e-02	-3.474456e-02
3.014648503687777e-01	9.190937e-02	-4.034434e-03	9.585732e-02	9.585732e-02	-9.585732e-02
3.024414128687777e-01	1.527976e-01	-3.911181e-03	1.565650e-01	1.565650e-01	-1.565650e-01
3.034179753687777e-01	2.131107e-01	-3.728952e-03	2.166392e-01	2.166392e-01	-2.166392e-01
3.043945378687777e-01	2.726218e-01	-3.488477e-03	2.758537e-01	2.758537e-01	-2.758537e-01
3.053711003687777e-01	3.311067e-01	-3.190704e-03	3.339859e-01	3.339859e-01	-3.339859e-01
3.063476628687777e-01	3.883454e-01	-2.836796e-03	3.908168e-01	3.908168e-01	-3.908168e-01
3.073242253687777e-01	4.441225e-01	-2.428130e-03	4.461327e-01	4.461327e-01	-4.461327e-01
3.083007878687777e-01	4.982280e-01	-1.966285e-03	4.997255e-01	4.997255e-01	-4.997255e-01
3.092773503687777e-01	5.504583e-01	-1.453043e-03	5.513934e-01	5.513934e-01	-5.513934e-01
3.102539128687777e-01	6.006168e-01	-8.903795e-04	6.009420e-01	6.009420e-01	-6.009420e-01
3.112304753687777e-01	6.485147e-01	-2.804542e-04	6.481850e-01	6.481850e-01	-6.481850e-01
3.122070378687777e-01	6.939718e-01	3.743941e-04	6.929444e-01	6.929444e-01	-6.929444e-01
3.131836003687777e-01	7.368168e-01	1.071658e-03	7.350519e-01	7.350519e-01	-7.350519e-01
3.141601628687777e-01	7.768887e-01	1.808670e-03	7.743491e-01	7.743491e-01	-7.743491e-01
3.151367253687777e-01	8.140365e-01	2.582614e-03	8.106880e-01	8.106880e-01	-8.106880e-01
3.170898503687777e-01	8.790124e-01	4.229346e-03	8.739560e-01	8.739560e-01	-8.739560e-01
3.190429753687777e-01	9.307671e-01	5.986746e-03	9.239045e-01	9.239045e-01	-9.239045e-01
3.209961003687777e-01	9.685222e-01	7.828040e-03	9.597828e-01	9.597828e-01	-9.597828e-01
3.229492253687777e-01	9.917098e-01	9.725194e-03	9.810514e-01	9.810514e-01	-9.810514e-01
3.249023503687777e-01	9.999812e-01	1.164933e-02	9.873909e-01	9.873909e-01	-9.873909e-01
3.268554753687777e-01	9.932119e-01	1.357118e-02	9.787062e-01	9.787062e-01	-9.787062e-01
