time	V(n001)	I(R1)	I(V1)
0.000000000000000e+00	0.000000e+00	0.000000e+00	0.000000e+00
4.288144243348923e-04	2.697828e-02	2.696308e-02	-2.696308e-02
8.576288486697847e-04	5.389171e-02	5.385799e-02	-5.385799e-02
1.286443273004677e-03	8.074031e-02	8.068472e-02	-8.068472e-02
1.715257697339569e-03	1.075241e-01	1.074433e-01	-1.074433e-01
2.144072121674462e-03	1.342430e-01	1.341337e-01	-1.341337e-01
2.572886546009354e-03	1.608971e-01	1.607559e-01	-1.607559e-01
3.001700970344245e-03	1.874863e-01	1.873099e-01	-1.873099e-01
4.954825970344245e-03	3.063163e-01	3.060281e-01	-3.060281e-01
6.907950970344245e-03	4.205390e-01	4.201433e-01	-4.201433e-01
8.861075970344245e-03	5.284365e-01	5.279393e-01	-5.279393e-01
1.081420097034425e-02	6.283857e-01	6.277944e-01	-6.277944e-01
1.276732597034425e-02	7.188835e-01	7.182070e-01	-7.182070e-01
1.472045097034425e-02	7.985685e-01	7.978171e-01	-7.978171e-01
1.667357597034425e-02	8.662424e-01	8.654273e-01	-8.654273e-01
1.862670097034425e-02	9.208872e-01	9.200207e-01	-9.200207e-01
2.057982597034425e-02	9.616809e-01	9.607760e-01	-9.607760e-01
2.253295097034425e-02	9.880101e-01	9.870805e-01	-9.870805e-01
2.448607597034425e-02	9.994787e-01	9.985383e-01	-9.985383e-01
2.643920097034425e-02	9.959142e-01	9.949771e-01	-9.949771e-01
2.839232597034425e-02	9.773703e-01	9.764506e-01	-9.764506e-01
3.034545097034425e-02	9.441257e-01	9.432373e-01	-9.432373e-01
3.229857597034425e-02	8.966807e-01	8.958369e-01	-8.958369e-01
3.425170097034425e-02	8.357487e-01	8.349622e-01	-8.349622e-01
3.620482597034425e-02	7.622463e-01	7.615290e-01	-7.615290e-01
3.815795097034425e-02	6.772790e-01	6.766417e-01	-6.766417e-01
4.011107597034425e-02	5.821248e-01	5.815770e-01	-5.815770e-01
4.206420097034425e-02	4.782149e-01	4.777649e-01	-4.777649e-01
4.401732597034425e-02	3.671122e-01	3.667667e-01	-3.667667e-01
4.597045097034425e-02	2.504877e-01	2.502520e-01	-2.502520e-01
4.792357597034425e-02	1.300958e-01	1.299734e-01	-1.299734e-01
4.987670097034425e-02	7.747029e-03	7.739740e-03	-7.739740e-03
5.182982597034425e-02	-1.147182e-01	-1.146103e-01	1.146103e-01
5.378295097034425e-02	-2.354580e-01	-2.352365e-01	2.352365e-01
5.573607597034425e-02	-3.526563e-01	-3.523245e-01	3.523245e-01
5.768920097034425e-02	-4.645503e-01	-4.641132e-01	4.641132e-01
5.964232597034425e-02	-5.694571e-01	-5.689212e-01	5.689212e-01
6.159545097034425e-02	-6.657986e-01	-6.651722e-01	6.651722e-01
6.354857597034425e-02	-7.521260e-01	-7.514183e-01	7.514183e-01
6.550170097034425e-02	-8.271406e-01	-8.263624e-01	8.263624e-01
6.745482597034425e-02	-8.897144e-01	-8.888772e-01	8.888772e-01
6.940795097034425e-02	-9.389059e-01	-9.380224e-01	9.380224e-01
7.136107597034425e-02	-9.739755e-01	-9.730591e-01	9.730591e-01
7.331420097034425e-02	-9.943955e-01	-9.934598e-01	9.934598e-01
7.526732597034425e-02	-9.998589e-01	-9.989181e-01	9.989181e-01
7.722045097034425e-02	-9.902835e-01	-9.893517e-01	9.893517e-01
7.917357597034425e-02	-9.658134e-01	-9.649046e-01	9.649046e-01
8.112670097034425e-02	-9.268165e-01	-9.259444e-01	9.259444e-01
8.307982597034425e-02	-8.738794e-01	-8.730571e-01	8.730571e-01
8.503295097034425e-02	-8.077983e-01	-8.070382e-01	8.070382e-01
8.698607597034425e-02	-7.295672e-01	-7.288808e-01	7.288808e-01
8.893920097034425e-02	-6.403628e-01	-6.397603e-01	6.397603e-01
9.089232597034425e-02	-5.415267e-01	-5.410171e-01	5.410171e-01
9.284545097034425e-02	-4.345455e-01	-4.341366e-01	4.341366e-01
9.479857597034425e-02	-3.210284e-01	-3.207263e-01	3.207263e-01
9.675170097034425e-02	-2.026826e-01	-2.024919e-01	2.024919e-01
9.870482597034425e-02	-8.128840e-02	-8.121191e-02	8.121191e-02
1.016345134703442e-01	1.025191e-01	1.024226e-01	-1.024226e-01
1.035876384703442e-01	2.235138e-01	2.233035e-01	-2.233035e-01
1.055407634703442e-01	3.411466e-01	3.408256e-01	-3.408256e-01
1.074938884703442e-01	4.536483e-01	4.532215e-01	-4.532215e-01
1.094470134703442e-01	5.593267e-01	5.588004e-01	-5.588004e-01
1.114001384703442e-01	6.565923e-01	6.559745e-01	-6.559745e-01
1.133532634703442e-01	7.439821e-01	7.432821e-01	-7.432821e-01
1.153063884703442e-01	8.201818e-01	8.194101e-01	-8.194101e-01
1.172595134703442e-01	8.840452e-01	8.832133e-01	-8.832133e-01
1.192126384703442e-01	9.346117e-01	9.337323e-01	-9.337323e-01
1.211657634703442e-01	9.711207e-01	9.702070e-01	-9.702070e-01
1.231188884703442e-01	9.930233e-01	9.920889e-01	-9.920889e-01
1.250720134703442e-01	9.999897e-01	9.990488e-01	-9.990488e-01
1.270251384703442e-01	9.919155e-01	9.909822e-01	-9.909822e-01
1.289782634703442e-01	9.689219e-01	9.680102e-01	-9.680102e-01
1.309313884703442e-01	9.313548e-01	9.304785e-01	-9.304785e-01
1.328845134703442e-01	8.797793e-01	8.789514e-01	-8.789514e-01
1.348376384703442e-01	8.149711e-01	8.142042e-01	-8.142042e-01
1.367907634703442e-01	7.379049e-01	7.372106e-01	-7.372106e-01
1.387438884703442e-01	6.497400e-01	6.491286e-01	-6.491286e-01
1.406970134703442e-01	5.518024e-01	5.512832e-01	-5.512832e-01
1.426501384703442e-01	4.455651e-01	4.451459e-01	-4.451459e-01
1.446032634703442e-01	3.326262e-01	3.323132e-01	-3.323132e-01
1.465563884703442e-01	2.146842e-01	2.144822e-01	-2.144822e-01
1.485095134703442e-01	9.351320e-02	9.342521e-02	-9.342521e-02
1.514392009703442e-01	-9.030447e-02	-9.021950e-02	9.021950e-02
1.533923259703442e-01	-2.115359e-01	-2.113368e-01	2.113368e-01
1.553454509703442e-01	-3.295856e-01	-3.292755e-01	3.292755e-01
1.572985759703442e-01	-4.426780e-01	-4.422615e-01	4.422615e-01
1.592517009703442e-01	-5.491121e-01	-5.485954e-01	5.485954e-01
1.612048259703442e-01	-6.472871e-01	-6.466781e-01	6.466781e-01
1.631579509703442e-01	-7.357263e-01	-7.350340e-01	7.350340e-01
1.651110759703442e-01	-8.130995e-01	-8.123344e-01	8.123344e-01
1.670642009703442e-01	-8.782429e-01	-8.774165e-01	8.774165e-01
1.690173259703442e-01	-9.301767e-01	-9.293014e-01	9.293014e-01
1.709704509703442e-01	-9.681197e-01	-9.672088e-01	9.672088e-01
1.729235759703442e-01	-9.915015e-01	-9.905685e-01	9.905685e-01
1.748767009703442e-01	-9.999700e-01	-9.990291e-01	9.990291e-01
1.768298259703442e-01	-9.933981e-01	-9.924634e-01	9.924634e-01
1.787829509703442e-01	-9.718845e-01	-9.709700e-01	9.709700e-01
1.807360759703442e-01	-9.357529e-01	-9.348724e-01	9.348724e-01
1.826892009703442e-01	-8.855467e-01	-8.847135e-01	8.847135e-01
1.846423259703442e-01	-8.220211e-01	-8.212476e-01	8.212476e-01
1.865954509703442e-01	-7.461315e-01	-7.454294e-01	7.454294e-01
1.885485759703442e-01	-6.590194e-01	-6.583992e-01	6.583992e-01
1.905017009703442e-01	-5.619950e-01	-5.614662e-01	5.614662e-01
1.924548259703442e-01	-4.565177e-01	-4.560881e-01	4.560881e-01
1.944079509703442e-01	-3.441739e-01	-3.438501e-01	3.438501e-01
1.963610759703442e-01	-2.266535e-01	-2.264402e-01	2.264402e-01
1.983142009703442e-01	-1.057239e-01	-1.056244e-01	1.056244e-01
2.012438884703442e-01	7.807627e-02	7.800281e-02	-7.800281e-02
2.031970134703442e-01	1.995261e-01	1.993384e-01	-1.993384e-01
2.051501384703442e-01	3.179749e-01	3.176757e-01	-3.176757e-01
2.071032634703442e-01	4.316410e-01	4.312349e-01	-4.312349e-01
2.090563884703442e-01	5.388149e-01	5.383079e-01	-5.383079e-01
2.110095134703442e-01	6.378844e-01	6.372842e-01	-6.372842e-01
2.129626384703442e-01	7.273597e-01	7.266753e-01	-7.266753e-01
2.149157634703442e-01	8.058947e-01	8.051364e-01	-8.051364e-01
2.168688884703442e-01	8.723083e-01	8.714875e-01	-8.714875e-01
2.188220134703442e-01	9.256016e-01	9.247307e-01	-9.247307e-01
2.207751384703442e-01	9.649730e-01	9.640650e-01	-9.640650e-01
2.227282634703442e-01	9.898303e-01	9.888989e-01	-9.888989e-01
2.246813884703442e-01	9.997996e-01	9.988589e-01	-9.988589e-01
2.266345134703442e-01	9.947310e-01	9.937950e-01	-9.937950e-01
2.285876384703442e-01	9.747007e-01	9.737836e-01	-9.737836e-01
2.305407634703442e-01	9.400101e-01	9.391256e-01	-9.391256e-01
2.324938884703442e-01	8.911808e-01	8.903422e-01	-8.903422e-01
2.344470134703442e-01	8.289473e-01	8.281673e-01	-8.281673e-01
2.364001384703442e-01	7.542456e-01	7.535359e-01	-7.535359e-01
2.383532634703442e-01	6.681995e-01	6.675707e-01	-6.675707e-01
2.403063884703442e-01	5.721030e-01	5.715647e-01	-5.715647e-01
2.422595134703442e-01	4.674015e-01	4.669617e-01	-4.669617e-01
2.442126384703442e-01	3.556698e-01	3.553351e-01	-3.553351e-01
2.461657634703442e-01	2.385886e-01	2.383641e-01	-2.383641e-01
2.481188884703442e-01	1.179187e-01	1.178078e-01	-1.178078e-01
2.500720134703442e-01	-4.524725e-03	-4.520467e-03	4.520467e-03
2.520251384703442e-01	-1.269001e-01	-1.267807e-01	1.267807e-01
2.539782634703442e-01	-2.473668e-01	-2.471341e-01	2.471341e-01
2.559313884703442e-01	-3.641129e-01	-3.637703e-01	3.637703e-01
2.578845134703442e-01	-4.753824e-01	-4.749351e-01	4.749351e-01
2.598376384703442e-01	-5.795016e-01	-5.789564e-01	5.789564e-01
2.617907634703442e-01	-6.749047e-01	-6.742697e-01	6.742697e-01
2.637438884703442e-01	-7.601565e-01	-7.594413e-01	7.594413e-01
2.656970134703442e-01	-8.339749e-01	-8.331902e-01	8.331902e-01
2.676501384703442e-01	-8.952495e-01	-8.944072e-01	8.944072e-01
2.696032634703442e-01	-9.430588e-01	-9.421714e-01	9.421714e-01
2.715563884703442e-01	-9.766835e-01	-9.757645e-01	9.757645e-01
2.735095134703442e-01	-9.956180e-01	-9.946812e-01	9.946812e-01
2.754626384703442e-01	-9.995775e-01	-9.986370e-01	9.986370e-01
2.774157634703442e-01	-9.885024e-01	-9.875723e-01	9.875723e-01
2.793688884703442e-01	-9.625594e-01	-9.616537e-01	9.616537e-01
2.813220134703442e-01	-9.221385e-01	-9.212708e-01	9.212708e-01
2.832751384703442e-01	-8.678479e-01	-8.670313e-01	8.670313e-01
2.852282634703442e-01	-8.005039e-01	-7.997507e-01	7.997507e-01
2.871813884703442e-01	-7.211197e-01	-7.204412e-01	7.204412e-01
2.891345134703442e-01	-6.308891e-01	-6.302955e-01	6.302955e-01
2.910876384703442e-01	-5.311694e-01	-5.306696e-01	5.306696e-01
2.930407634703442e-01	-4.234604e-01	-4.230620e-01	4.230620e-01
2.949938884703442e-01	-3.093822e-01	-3.090911e-01	3.090911e-01
2.969470134703442e-01	-1.906505e-01	-1.904711e-01	1.904711e-01
2.989001384703442e-01	-6.905135e-02	-6.898637e-02	6.898637e-02
3.008532634703442e-01	5.358645e-02	5.353602e-02	-5.353602e-02
3.028063884703442e-01	1.754182e-01	1.752532e-01	-1.752532e-01
3.047595134703442e-01	2.946116e-01	2.943344e-01	-2.943344e-01
3.067126384703442e-01	4.093737e-01	4.089885e-01	-4.089885e-01
3.086657634703442e-01	5.179785e-01	5.174911e-01	-5.174911e-01
3.106188884703442e-01	6.187924e-01	6.182101e-01	-6.182101e-01
3.125720134703442e-01	7.102990e-01	7.096307e-01	-7.096307e-01
3.145251384703442e-01	7.911221e-01	7.903777e-01	-7.903777e-01
3.164782634703442e-01	8.600460e-01	8.592368e-01	-8.592368e-01
3.184313884703442e-01	9.160340e-01	9.151720e-01	-9.151720e-01
3.203845134703442e-01	9.582440e-01	9.573424e-01	-9.573424e-01
3.223376384703442e-01	9.860411e-01	9.851133e-01	-9.851133e-01
3.242907634703442e-01	9.990072e-01	9.980672e-01	-9.980672e-01
3.262438884703442e-01	9.969474e-01	9.960093e-01	-9.960093e-01
3.281970134703442e-01	9.798925e-01	9.789705e-01	-9.789705e-01
3.301501384703442e-01	9.480991e-01	9.472070e-01	-9.472070e-01
3.321032634703442e-01	9.020455e-01	9.011967e-01	-9.011967e-01
3.340563884703442e-01	8.424242e-01	8.416315e-01	-8.416315e-01
3.360095134703442e-01	7.701321e-01	7.694074e-01	-7.694074e-01
3.379626384703442e-01	6.862565e-01	6.856108e-01	-6.856108e-01
3.399157634703442e-01	5.920589e-01	5.915018e-01	-5.915018e-01
3.418688884703442e-01	4.889562e-01	4.884962e-01	-4.884962e-01
3.438220134703442e-01	3.784992e-01	3.781431e-01	-3.781431e-01
3.457751384703442e-01	2.623492e-01	2.621024e-01	-2.621024e-01
3.477282634703442e-01	1.422532e-01	1.421194e-01	-1.421194e-01
3.496813884703442e-01	2.001762e-02	1.999878e-02	-1.999878e-02
3.516345134703442e-01	-1.025191e-01	-1.024226e-01	1.024226e-01
3.535876384703442e-01	-2.235138e-01	-2.233035e-01	2.233035e-01
3.555407634703442e-01	-3.411466e-01	-3.408256e-01	3.408256e-01
3.574938884703442e-01	-4.536483e-01	-4.532215e-01	4.532215e-01
3.594470134703442e-01	-5.593267e-01	-5.588004e-01	5.588004e-01
3.614001384703442e-01	-6.565923e-01	-6.559745e-01	6.559745e-01
3.633532634703442e-01	-7.439821e-01	-7.432821e-01	7.432821e-01
3.653063884703442e-01	-8.201818e-01	-8.194101e-01	8.194101e-01
3.672595134703442e-01	-8.840452e-01	-8.832133e-01	8.832133e-01
3.692126384703442e-01	-9.346117e-01	-9.337323e-01	9.337323e-01
3.711657634703442e-01	-9.711207e-01	-9.702070e-01	9.702070e-01
3.731188884703442e-01	-9.930233e-01	-9.920889e-01	9.920889e-01
3.750720134703442e-01	-9.999897e-01	-9.990488e-01	9.990488e-01
3.770251384703442e-01	-9.919155e-01	-9.909822e-01	9.909822e-01
3.789782634703442e-01	-9.689219e-01	-9.680102e-01	9.680102e-01
3.809313884703442e-01	-9.313548e-01	-9.304785e-01	9.304785e-01
3.828845134703442e-01	-8.797793e-01	-8.789514e-01	8.789514e-01
3.848376384703442e-01	-8.149711e-01	-8.142042e-01	8.142042e-01
3.867907634703442e-01	-7.379049e-01	-7.372106e-01	7.372106e-01
3.887438884703442e-01	-6.497400e-01	-6.491286e-01	6.491286e-01
3.906970134703442e-01	-5.518024e-01	-5.512832e-01	5.512832e-01
3.926501384703442e-01	-4.455651e-01	-4.451459e-01	4.451459e-01
3.946032634703442e-01	-3.326262e-01	-3.323132e-01	3.323132e-01
3.965563884703442e-01	-2.146842e-01	-2.144822e-01	2.144822e-01
3.985095134703442e-01	-9.351320e-02	-9.342521e-02	9.342521e-02
4.014392009703442e-01	9.030447e-02	9.021950e-02	-9.021950e-02
4.033923259703442e-01	2.115359e-01	2.113368e-01	-2.113368e-01
4.053454509703442e-01	3.295856e-01	3.292755e-01	-3.292755e-01
4.072985759703442e-01	4.426780e-01	4.422615e-01	-4.422615e-01
4.092517009703442e-01	5.491121e-01	5.485954e-01	-5.485954e-01
4.112048259703442e-01	6.472871e-01	6.466781e-01	-6.466781e-01
4.131579509703442e-01	7.357263e-01	7.350340e-01	-7.350340e-01
4.151110759703442e-01	8.130995e-01	8.123344e-01	-8.123344e-01
4.170642009703442e-01	8.782429e-01	8.774165e-01	-8.774165e-01
4.190173259703442e-01	9.301767e-01	9.293014e-01	-9.293014e-01
4.209704509703442e-01	9.681197e-01	9.672088e-01	-9.672088e-01
4.229235759703442e-01	9.915015e-01	9.905685e-01	-9.905685e-01
4.248767009703442e-01	9.999700e-01	9.990291e-01	-9.990291e-01
4.268298259703442e-01	9.933981e-01	9.924634e-01	-9.924634e-01
4.287829509703442e-01	9.718845e-01	9.709700e-01	-9.709700e-01
4.307360759703442e-01	9.357529e-01	9.348724e-01	-9.348724e-01
4.326892009703442e-01	8.855467e-01	8.847135e-01	-8.847135e-01
4.346423259703442e-01	8.220211e-01	8.212476e-01	-8.212476e-01
4.365954509703442e-01	7.461315e-01	7.454294e-01	-7.454294e-01
4.385485759703442e-01	6.590194e-01	6.583992e-01	-6.583992e-01
4.405017009703442e-01	5.619950e-01	5.614662e-01	-5.614662e-01
4.424548259703442e-01	4.565177e-01	4.560881e-01	-4.560881e-01
4.444079509703442e-01	3.441739e-01	3.438501e-01	-3.438501e-01
4.463610759703442e-01	2.266535e-01	2.264402e-01	-2.264402e-01
4.483142009703442e-01	1.057239e-01	1.056244e-01	-1.056244e-01
4.512438884703442e-01	-7.807627e-02	-7.800281e-02	7.800281e-02
4.531970134703442e-01	-1.995261e-01	-1.993384e-01	1.993384e-01
4.551501384703442e-01	-3.179749e-01	-3.176757e-01	3.176757e-01
4.571032634703442e-01	-4.316410e-01	-4.312349e-01	4.312349e-01
4.590563884703442e-01	-5.388149e-01	-5.383079e-01	5.383079e-01
4.610095134703442e-01	-6.378844e-01	-6.372842e-01	6.372842e-01
4.629626384703442e-01	-7.273597e-01	-7.266753e-01	7.266753e-01
4.649157634703442e-01	-8.058947e-01	-8.051364e-01	8.051364e-01
4.668688884703442e-01	-8.723083e-01	-8.714875e-01	8.714875e-01
4.688220134703442e-01	-9.256016e-01	-9.247307e-01	9.247307e-01
4.707751384703442e-01	-9.649730e-01	-9.640650e-01	9.640650e-01
4.727282634703442e-01	-9.898303e-01	-9.888989e-01	9.888989e-01
4.746813884703442e-01	-9.997996e-01	-9.988589e-01	9.988589e-01
4.766345134703442e-01	-9.947310e-01	-9.937950e-01	9.937950e-01
4.785876384703442e-01	-9.747007e-01	-9.737836e-01	9.737836e-01
4.805407634703442e-01	-9.400101e-01	-9.391256e-01	9.391256e-01
4.824938884703442e-01	-8.911808e-01	-8.903422e-01	8.903422e-01
4.844470134703442e-01	-8.289473e-01	-8.281673e-01	8.281673e-01
4.864001384703442e-01	-7.542456e-01	-7.535359e-01	7.535359e-01
4.883532634703442e-01	-6.681995e-01	-6.675707e-01	6.675707e-01
4.903063884703442e-01	-5.721030e-01	-5.715647e-01	5.715647e-01
4.922595134703442e-01	-4.674015e-01	-4.669617e-01	4.669617e-01
4.942126384703442e-01	-3.556698e-01	-3.553351e-01	3.553351e-01
4.961657634703442e-01	-2.385886e-01	-2.383641e-01	2.383641e-01
4.981188884703442e-01	-1.179187e-01	-1.178078e-01	1.178078e-01
5.000720134703442e-01	4.524725e-03	4.520467e-03	-4.520467e-03
5.020251384703442e-01	1.269001e-01	1.267807e-01	-1.267807e-01
5.039782634703442e-01	2.473668e-01	2.471341e-01	-2.471341e-01
5.059313884703442e-01	3.641129e-01	3.637703e-01	-3.637703e-01
5.078845134703442e-01	4.753824e-01	4.749351e-01	-4.749351e-01
5.098376384703442e-01	5.795016e-01	5.789564e-01	-5.789564e-01
5.117907634703442e-01	6.749047e-01	6.742697e-01	-6.742697e-01
5.137438884703442e-01	7.601565e-01	7.594413e-01	-7.594413e-01
5.156970134703442e-01	8.339749e-01	8.331902e-01	-8.331902e-01
5.176501384703442e-01	8.952495e-01	8.944072e-01	-8.944072e-01
5.196032634703442e-01	9.430588e-01	9.421714e-01	-9.421714e-01
5.215563884703442e-01	9.766835e-01	9.757645e-01	-9.757645e-01
5.235095134703442e-01	9.956180e-01	9.946812e-01	-9.946812e-01
5.254626384703442e-01	9.995775e-01	9.986370e-01	-9.986370e-01
5.274157634703442e-01	9.885024e-01	9.875723e-01	-9.875723e-01
5.293688884703442e-01	9.625594e-01	9.616537e-01	-9.616537e-01
5.313220134703442e-01	9.221385e-01	9.212708e-01	-9.212708e-01
5.332751384703442e-01	8.678479e-01	8.670313e-01	-8.670313e-01
5.352282634703442e-01	8.005039e-01	7.997507e-01	-7.997507e-01
5.371813884703442e-01	7.211197e-01	7.204412e-01	-7.204412e-01
5.391345134703442e-01	6.308891e-01	6.302955e-01	-6.302955e-01
5.410876384703442e-01	5.311694e-01	5.306696e-01	-5.306696e-01
5.430407634703442e-01	4.234604e-01	4.230620e-01	-4.230620e-01
5.449938884703442e-01	3.093822e-01	3.090911e-01	-3.090911e-01
5.469470134703442e-01	1.906505e-01	1.904711e-01	-1.904711e-01
5.489001384703442e-01	6.905135e-02	6.898637e-02	-6.898637e-02
5.508532634703442e-01	-5.358645e-02	-5.353602e-02	5.353602e-02
5.528063884703442e-01	-1.754182e-01	-1.752532e-01	1.752532e-01
5.547595134703442e-01	-2.946116e-01	-2.943344e-01	2.943344e-01
5.567126384703442e-01	-4.093737e-01	-4.089885e-01	4.089885e-01
5.586657634703442e-01	-5.179785e-01	-5.174911e-01	5.174911e-01
5.606188884703442e-01	-6.187924e-01	-6.182101e-01	6.182101e-01
5.625720134703442e-01	-7.102990e-01	-7.096307e-01	7.096307e-01
5.645251384703442e-01	-7.911221e-01	-7.903777e-01	7.903777e-01
5.664782634703442e-01	-8.600460e-01	-8.592368e-01	8.592368e-01
5.684313884703442e-01	-9.160340e-01	-9.151720e-01	9.151720e-01
5.703845134703442e-01	-9.582440e-01	-9.573424e-01	9.573424e-01
5.723376384703442e-01	-9.860411e-01	-9.851133e-01	9.851133e-01
5.742907634703442e-01	-9.990072e-01	-9.980672e-01	9.980672e-01
5.762438884703442e-01	-9.969474e-01	-9.960093e-01	9.960093e-01
5.781970134703442e-01	-9.798925e-01	-9.789705e-01	9.789705e-01
5.801501384703442e-01	-9.480991e-01	-9.472070e-01	9.472070e-01
5.821032634703442e-01	-9.020455e-01	-9.011967e-01	9.011967e-01
5.840563884703442e-01	-8.424242e-01	-8.416315e-01	8.416315e-01
5.860095134703442e-01	-7.701321e-01	-7.694074e-01	7.694074e-01
5.879626384703442e-01	-6.862565e-01	-6.856108e-01	6.856108e-01
5.899157634703442e-01	-5.920589e-01	-5.915018e-01	5.915018e-01
5.918688884703442e-01	-4.889562e-01	-4.884962e-01	4.884962e-01
5.938220134703442e-01	-3.784992e-01	-3.781431e-01	3.781431e-01
5.957751384703442e-01	-2.623492e-01	-2.621024e-01	2.621024e-01
5.977282634703442e-01	-1.422532e-01	-1.421194e-01	1.421194e-01
5.996813884703442e-01	-2.001762e-02	-1.999878e-02	1.999878e-02
6.016345134703442e-01	1.025191e-01	1.024226e-01	-1.024226e-01
6.035876384703442e-01	2.235138e-01	2.233035e-01	-2.233035e-01
6.055407634703442e-01	3.411466e-01	3.408256e-01	-3.408256e-01
6.074938884703442e-01	4.536483e-01	4.532215e-01	-4.532215e-01
6.094470134703442e-01	5.593267e-01	5.588004e-01	-5.588004e-01
6.114001384703442e-01	6.565923e-01	6.559745e-01	-6.559745e-01
6.133532634703442e-01	7.439821e-01	7.432821e-01	-7.432821e-01
6.153063884703442e-01	8.201818e-01	8.194101e-01	-8.194101e-01
