time	V(n002)	V(n001)	V(n004)	I(C2)	I(C1)	I(V2)	I(V1)
0.000000000000000e+00	0.000000e+00	1.000000e+00	3.333333e-01	6.666666e-13	3.333333e-13	-6.666666e-13	-6.666666e-13
9.999999717180685e-10	6.283185e-08	1.000000e+00	3.333334e-01	2.356194e+01	2.356194e+01	-2.356194e+01	-2.356194e+01
1.999999943436137e-09	1.256637e-07	1.000000e+00	3.333334e-01	3.141593e+01	3.141593e+01	-3.141593e+01	-3.141593e+01
4.288161386205582e-04	2.697838e-02	1.026978e+00	3.468149e-01	3.139968e+01	3.139968e+01	-3.139968e+01	-3.139968e+01
8.576302772411729e-04	5.389180e-02	1.053892e+00	3.602624e-01	3.136140e+01	3.136140e+01	-3.136140e+01	-3.136140e+01
1.286444415861788e-03	8.074038e-02	1.080740e+00	3.736757e-01	3.130109e+01	3.130109e+01	-3.130109e+01	-3.130109e+01
1.715258554482402e-03	1.075241e-01	1.107524e+00	3.870550e-01	3.121874e+01	3.121874e+01	-3.121874e+01	-3.121874e+01
2.144072693103017e-03	1.342430e-01	1.134243e+00	4.004002e-01	3.111435e+01	3.111435e+01	-3.111435e+01	-3.111435e+01
2.572886831723632e-03	1.608971e-01	1.160897e+00	4.137113e-01	3.098793e+01	3.098793e+01	-3.098793e+01	-3.098793e+01
3.001700970344245e-03	1.874863e-01	1.187486e+00	4.269883e-01	3.083947e+01	3.083947e+01	-3.083947e+01	-3.083947e+01
4.954825970344245e-03	3.063163e-01	1.306316e+00	4.863474e-01	2.988700e+01	2.988700e+01	-2.988700e+01	-2.988700e+01
6.907950970344245e-03	4.205390e-01	1.420539e+00	5.434050e-01	2.848499e+01	2.848499e+01	-2.848499e+01	-2.848499e+01
8.861075970344245e-03	5.284365e-01	1.528436e+00	5.973030e-01	2.665454e+01	2.665454e+01	-2.665454e+01	-2.665454e+01
1.081420097034425e-02	6.283857e-01	1.628386e+00	6.472306e-01	2.442318e+01	2.442318e+01	-2.442318e+01	-2.442318e+01
1.276732597034425e-02	7.188835e-01	1.718884e+00	6.924368e-01	2.182447e+01	2.182447e+01	-2.182447e+01	-2.182447e+01
1.472045097034425e-02	7.985685e-01	1.798568e+00	7.322419e-01	1.889751e+01	1.889751e+01	-1.889751e+01	-1.889751e+01
1.667357597034425e-02	8.662424e-01	1.866242e+00	7.660470e-01	1.568630e+01	1.568630e+01	-1.568630e+01	-1.568630e+01
1.862670097034425e-02	9.208872e-01	1.920887e+00	7.933437e-01	1.223916e+01	1.223916e+01	-1.223916e+01	-1.223916e+01
2.057982597034425e-02	9.616809e-01	1.961681e+00	8.137214e-01	8.607937e+00	8.607937e+00	-8.607937e+00	-8.607937e+00
2.253295097034425e-02	9.880101e-01	1.988010e+00	8.268735e-01	4.847239e+00	4.847239e+00	-4.847239e+00	-4.847239e+00
2.448607597034425e-02	9.994787e-01	1.999479e+00	8.326024e-01	1.013633e+00	1.013633e+00	-1.013633e+00	-1.013633e+00
2.643920097034425e-02	9.959142e-01	1.995914e+00	8.308219e-01	-2.835219e+00	-2.835219e+00	2.835219e+00	2.835219e+00
2.839232597034425e-02	9.773703e-01	1.977370e+00	8.215586e-01	-6.641426e+00	-6.641426e+00	6.641426e+00	6.641426e+00
3.034545097034425e-02	9.441257e-01	1.944126e+00	8.049520e-01	-1.034774e+01	-1.034774e+01	1.034774e+01	1.034774e+01
3.229857597034425e-02	8.966807e-01	1.896681e+00	7.812518e-01	-1.389841e+01	-1.389841e+01	1.389841e+01	1.389841e+01
3.425170097034425e-02	8.357487e-01	1.835749e+00	7.508144e-01	-1.724004e+01	-1.724004e+01	1.724004e+01	1.724004e+01
3.620482597034425e-02	7.622463e-01	1.762246e+00	7.140979e-01	-2.032237e+01	-2.032237e+01	2.032237e+01	2.032237e+01
3.815795097034425e-02	6.772790e-01	1.677279e+00	6.716542e-01	-2.309902e+01	-2.309902e+01	2.309902e+01	2.309902e+01
4.011107597034425e-02	5.821248e-01	1.582125e+00	6.241218e-01	-2.552825e+01	-2.552825e+01	2.552825e+01	2.552825e+01
4.206420097034425e-02	4.782149e-01	1.478215e+00	5.722158e-01	-2.757351e+01	-2.757351e+01	2.757351e+01	2.757351e+01
4.401732597034425e-02	3.671122e-01	1.367112e+00	5.167167e-01	-2.920403e+01	-2.920403e+01	2.920403e+01	2.920403e+01
4.597045097034425e-02	2.504877e-01	1.250488e+00	4.584594e-01	-3.039530e+01	-3.039530e+01	3.039530e+01	3.039530e+01
4.792357597034425e-02	1.300958e-01	1.130096e+00	3.983200e-01	-3.112939e+01	-3.112939e+01	3.112939e+01	3.112939e+01
4.987670097034425e-02	7.747029e-03	1.007747e+00	3.372032e-01	-3.139528e+01	-3.139528e+01	3.139528e+01	3.139528e+01
5.182982597034425e-02	-1.147182e-01	8.852817e-01	2.760282e-01	-3.118894e+01	-3.118894e+01	3.118894e+01	3.118894e+01
5.378295097034425e-02	-2.354580e-01	7.645420e-01	2.157151e-01	-3.051350e+01	-3.051350e+01	3.051350e+01	3.051350e+01
5.573607597034425e-02	-3.526563e-01	6.473437e-01	1.571711e-01	-2.937910e+01	-2.937910e+01	2.937910e+01	2.937910e+01
5.671263847034425e-02	-4.093737e-01	5.906263e-01	1.288391e-01	-2.864487e+01	-2.864487e+01	2.864487e+01	2.864487e+01
5.768920097034425e-02	-4.645503e-01	5.354497e-01	1.012767e-01	-2.780282e+01	-2.780282e+01	2.780282e+01	2.780282e+01
5.866576347034425e-02	-5.179785e-01	4.820215e-01	7.458779e-02	-2.685612e+01	-2.685612e+01	2.685612e+01	2.685612e+01
5.964232597034425e-02	-5.694571e-01	4.305429e-01	4.887272e-02	-2.580835e+01	-2.580835e+01	2.580835e+01	2.580835e+01
6.061888847034425e-02	-6.187924e-01	3.812076e-01	2.422829e-02	-2.466344e+01	-2.466344e+01	2.466344e+01	2.466344e+01
6.159545097034425e-02	-6.657986e-01	3.342014e-01	7.472566e-04	-2.342571e+01	-2.342571e+01	2.342571e+01	2.342571e+01
6.257201347034425e-02	-7.102990e-01	2.897010e-01	-2.148199e-02	-2.209980e+01	-2.209980e+01	2.209980e+01	2.209980e+01
6.354857597034425e-02	-7.521260e-01	2.478740e-01	-4.237580e-02	-2.069072e+01	-2.069072e+01	2.069072e+01	2.069072e+01
6.452513847034425e-02	-7.911221e-01	2.088779e-01	-6.185552e-02	-1.920375e+01	-1.920375e+01	1.920375e+01	1.920375e+01
6.550170097034425e-02	-8.271406e-01	1.728594e-01	-7.984784e-02	-1.764452e+01	-1.764452e+01	1.764452e+01	1.764452e+01
6.647826347034425e-02	-8.600460e-01	1.399540e-01	-9.628505e-02	-1.601887e+01	-1.601887e+01	1.601887e+01	1.601887e+01
6.745482597034425e-02	-8.897144e-01	1.102857e-01	-1.111053e-01	-1.433293e+01	-1.433293e+01	1.433293e+01	1.433293e+01
6.843138847034425e-02	-9.160340e-01	8.396599e-02	-1.242527e-01	-1.259304e+01	-1.259304e+01	1.259304e+01	1.259304e+01
6.940795097034425e-02	-9.389059e-01	6.109409e-02	-1.356779e-01	-1.080576e+01	-1.080576e+01	1.080576e+01	1.080576e+01
7.038451347034425e-02	-9.582440e-01	4.175600e-02	-1.453378e-01	-8.977805e+00	-8.977805e+00	8.977805e+00	8.977805e+00
7.136107597034425e-02	-9.739755e-01	2.602453e-02	-1.531962e-01	-7.116061e+00	-7.116061e+00	7.116061e+00	7.116061e+00
7.233763847034425e-02	-9.860411e-01	1.395889e-02	-1.592233e-01	-5.227534e+00	-5.227534e+00	5.227534e+00	5.227534e+00
7.331420097034425e-02	-9.943955e-01	5.604479e-03	-1.633966e-01	-3.319331e+00	-3.319331e+00	3.319331e+00	3.319331e+00
7.429076347034425e-02	-9.990072e-01	9.927504e-04	-1.657003e-01	-1.398636e+00	-1.398636e+00	1.398636e+00	1.398636e+00
7.526732597034425e-02	-9.998589e-01	1.410593e-04	-1.661257e-01	5.273244e-01	5.273244e-01	-5.273244e-01	-5.273244e-01
7.624388847034425e-02	-9.969474e-01	3.052612e-03	-1.646713e-01	2.451300e+00	2.451300e+00	-2.451300e+00	-2.451300e+00
7.722045097034425e-02	-9.902835e-01	9.716448e-03	-1.613425e-01	4.366049e+00	4.366049e+00	-4.366049e+00	-4.366049e+00
7.819701347034425e-02	-9.798925e-01	2.010749e-02	-1.561519e-01	6.264365e+00	6.264365e+00	-6.264365e+00	-6.264365e+00
7.917357597034425e-02	-9.658134e-01	3.418662e-02	-1.491190e-01	8.139104e+00	8.139104e+00	-8.139104e+00	-8.139104e+00
8.015013847034425e-02	-9.480991e-01	5.190086e-02	-1.402702e-01	9.983209e+00	9.983209e+00	-9.983209e+00	-9.983209e+00
8.112670097034425e-02	-9.268165e-01	7.318353e-02	-1.296389e-01	1.178974e+01	1.178974e+01	-1.178974e+01	-1.178974e+01
8.210326347034425e-02	-9.020455e-01	9.795453e-02	-1.172650e-01	1.355190e+01	1.355190e+01	-1.355190e+01	-1.355190e+01
8.307982597034425e-02	-8.738794e-01	1.261206e-01	-1.031952e-01	1.526305e+01	1.526305e+01	-1.526305e+01	-1.526305e+01
8.405638847034425e-02	-8.424242e-01	1.575758e-01	-8.748243e-02	1.691675e+01	1.691675e+01	-1.691675e+01	-1.691675e+01
8.503295097034425e-02	-8.077983e-01	1.922017e-01	-7.018578e-02	1.850678e+01	1.850678e+01	-1.850678e+01	-1.850678e+01
8.600951347034425e-02	-7.701321e-01	2.298679e-01	-5.137038e-02	2.002716e+01	2.002716e+01	-2.002716e+01	-2.002716e+01
8.698607597034425e-02	-7.295672e-01	2.704328e-01	-3.110705e-02	2.147216e+01	2.147216e+01	-2.147216e+01	-2.147216e+01
8.796263847034425e-02	-6.862565e-01	3.137435e-01	-9.472036e-03	2.283634e+01	2.283634e+01	-2.283634e+01	-2.283634e+01
8.893920097034425e-02	-6.403628e-01	3.596372e-01	1.345322e-02	2.411457e+01	2.411457e+01	-2.411457e+01	-2.411457e+01
8.991576347034425e-02	-5.920589e-01	4.079411e-01	3.758242e-02	2.530204e+01	2.530204e+01	-2.530204e+01	-2.530204e+01
9.089232597034425e-02	-5.415267e-01	4.584733e-01	6.282477e-02	2.639428e+01	2.639428e+01	-2.639428e+01	-2.639428e+01
9.186888847034425e-02	-4.889562e-01	5.110437e-01	8.908525e-02	2.738718e+01	2.738718e+01	-2.738718e+01	-2.738718e+01
9.284545097034425e-02	-4.345455e-01	5.654545e-01	1.162650e-01	2.827700e+01	2.827700e+01	-2.827700e+01	-2.827700e+01
9.479857597034425e-02	-3.210284e-01	6.789716e-01	1.729702e-01	2.973440e+01	2.973440e+01	-2.973440e+01	-2.973440e+01
9.675170097034425e-02	-2.026826e-01	7.973174e-01	2.320874e-01	3.074457e+01	3.074457e+01	-3.074457e+01	-3.074457e+01
9.870482597034425e-02	-8.128840e-02	9.187116e-01	2.927274e-01	3.129231e+01	3.129231e+01	-3.129231e+01	-3.129231e+01
1.006579509703442e-01	4.132850e-02	1.041329e+00	3.539782e-01	3.136939e+01	3.136939e+01	-3.136939e+01	-3.136939e+01
1.026110759703442e-01	1.633238e-01	1.163324e+00	4.149184e-01	3.097465e+01	3.097465e+01	-3.097465e+01	-3.097465e+01
1.045642009703442e-01	2.828625e-01	1.282863e+00	4.746315e-01	3.011401e+01	3.011401e+01	-3.011401e+01	-3.011401e+01
1.065173259703442e-01	3.981467e-01	1.398147e+00	5.322194e-01	2.880043e+01	2.880043e+01	-2.880043e+01	-2.880043e+01
1.084704509703442e-01	5.074425e-01	1.507442e+00	5.868158e-01	2.705367e+01	2.705367e+01	-2.705367e+01	-2.705367e+01
1.104235759703442e-01	6.091058e-01	1.609106e+00	6.375996e-01	2.489999e+01	2.489999e+01	-2.489999e+01	-2.489999e+01
1.123767009703442e-01	7.016076e-01	1.701608e+00	6.838070e-01	2.237180e+01	2.237180e+01	-2.237180e+01	-2.237180e+01
1.143298259703442e-01	7.835566e-01	1.783557e+00	7.247429e-01	1.950711e+01	1.950711e+01	-1.950711e+01	-1.950711e+01
1.162829509703442e-01	8.537201e-01	1.853720e+00	7.597917e-01	1.634902e+01	1.634902e+01	-1.634902e+01	-1.634902e+01
1.182360759703442e-01	9.110429e-01	1.911043e+00	7.884262e-01	1.294502e+01	1.294502e+01	-1.294502e+01	-1.294502e+01
1.201892009703442e-01	9.546628e-01	1.954663e+00	8.102156e-01	9.346321e+00	9.346321e+00	-9.346321e+00	-9.346321e+00
1.221423259703442e-01	9.839236e-01	1.983924e+00	8.248323e-01	5.607042e+00	5.607042e+00	-5.607042e+00	-5.607042e+00
1.240954509703442e-01	9.983854e-01	1.998385e+00	8.320563e-01	1.783427e+00	1.783427e+00	-1.783427e+00	-1.783427e+00
1.260485759703442e-01	9.978305e-01	1.997830e+00	8.317791e-01	-2.067011e+00	-2.067011e+00	2.067011e+00	2.067011e+00
1.280017009703442e-01	9.822672e-01	1.982267e+00	8.240048e-01	-5.886360e+00	-5.886360e+00	5.886360e+00	5.886360e+00
1.299548259703442e-01	9.519298e-01	1.951930e+00	8.088503e-01	-9.617173e+00	-9.617173e+00	9.617173e+00	9.617173e+00
1.319079509703442e-01	9.072744e-01	1.907274e+00	7.865437e-01	-1.320333e+01	-1.320333e+01	1.320333e+01	1.320333e+01
1.338610759703442e-01	8.489729e-01	1.848973e+00	7.574204e-01	-1.659091e+01	-1.659091e+01	1.659091e+01	1.659091e+01
1.358142009703442e-01	7.779019e-01	1.777902e+00	7.219183e-01	-1.972894e+01	-1.972894e+01	1.972894e+01	1.972894e+01
1.377673259703442e-01	6.951306e-01	1.695131e+00	6.805716e-01	-2.257022e+01	-2.257022e+01	2.257022e+01	2.257022e+01
1.397204509703442e-01	6.019039e-01	1.601904e+00	6.340021e-01	-2.507203e+01	-2.507203e+01	2.507203e+01	2.507203e+01
1.416735759703442e-01	4.996240e-01	1.499624e+00	5.829103e-01	-2.719673e+01	-2.719673e+01	2.719673e+01	2.719673e+01
1.436267009703442e-01	3.898293e-01	1.389829e+00	5.280645e-01	-2.891237e+01	-2.891237e+01	2.891237e+01	2.891237e+01
1.455798259703442e-01	2.741711e-01	1.274171e+00	4.702899e-01	-3.019314e+01	-3.019314e+01	3.019314e+01	3.019314e+01
1.475329509703442e-01	1.543892e-01	1.154389e+00	4.104553e-01	-3.101978e+01	-3.101978e+01	3.101978e+01	3.101978e+01
1.494860759703442e-01	3.228519e-02	1.032285e+00	3.494607e-01	-3.137985e+01	-3.137985e+01	3.137985e+01	3.137985e+01
1.514392009703442e-01	-9.030447e-02	9.096955e-01	2.882236e-01	-3.126794e+01	-3.126794e+01	3.126794e+01	3.126794e+01
1.533923259703442e-01	-2.115359e-01	7.884641e-01	2.276649e-01	-3.068573e+01	-3.068573e+01	3.068573e+01	3.068573e+01
1.553454509703442e-01	-3.295856e-01	6.704144e-01	1.686956e-01	-2.964198e+01	-2.964198e+01	2.964198e+01	2.964198e+01
1.563220134703442e-01	-3.868598e-01	6.131402e-01	1.400854e-01	-2.895166e+01	-2.895166e+01	2.895166e+01	2.895166e+01
1.572985759703442e-01	-4.426780e-01	5.573220e-01	1.122026e-01	-2.815238e+01	-2.815238e+01	2.815238e+01	2.815238e+01
1.582751384703442e-01	-4.968300e-01	5.031700e-01	8.515205e-02	-2.724714e+01	-2.724714e+01	2.724714e+01	2.724714e+01
1.592517009703442e-01	-5.491121e-01	4.508879e-01	5.903560e-02	-2.623935e+01	-2.623935e+01	2.623935e+01	2.623935e+01
1.602282634703442e-01	-5.993275e-01	4.006725e-01	3.395155e-02	-2.513280e+01	-2.513280e+01	2.513280e+01	2.513280e+01
1.612048259703442e-01	-6.472871e-01	3.527129e-01	9.994302e-03	-2.393165e+01	-2.393165e+01	2.393165e+01	2.393165e+01
1.621813884703442e-01	-6.928105e-01	3.071895e-01	-1.274597e-02	-2.264043e+01	-2.264043e+01	2.264043e+01	2.264043e+01
1.631579509703442e-01	-7.357263e-01	2.642737e-01	-3.418368e-02	-2.126400e+01	-2.126400e+01	2.126400e+01	2.126400e+01
1.641345134703442e-01	-7.758730e-01	2.241270e-01	-5.423814e-02	-1.980753e+01	-1.980753e+01	1.980753e+01	1.980753e+01
1.651110759703442e-01	-8.130995e-01	1.869005e-01	-7.283387e-02	-1.827652e+01	-1.827652e+01	1.827652e+01	1.827652e+01
1.660876384703442e-01	-8.472657e-01	1.527344e-01	-8.990087e-02	-1.667671e+01	-1.667671e+01	1.667671e+01	1.667671e+01
1.670642009703442e-01	-8.782429e-01	1.217571e-01	-1.053749e-01	-1.501414e+01	-1.501414e+01	1.501414e+01	1.501414e+01
1.680407634703442e-01	-9.059146e-01	9.408540e-02	-1.191978e-01	-1.329506e+01	-1.329506e+01	1.329506e+01	1.329506e+01
1.690173259703442e-01	-9.301767e-01	6.982332e-02	-1.313174e-01	-1.152593e+01	-1.152593e+01	1.152593e+01	1.152593e+01
1.699938884703442e-01	-9.509378e-01	4.906221e-02	-1.416882e-01	-9.713430e+00	-9.713430e+00	9.713430e+00	9.713430e+00
1.709704509703442e-01	-9.681197e-01	3.188023e-02	-1.502711e-01	-7.864367e+00	-7.864367e+00	7.864367e+00	7.864367e+00
1.719470134703442e-01	-9.816580e-01	1.834203e-02	-1.570338e-01	-5.985706e+00	-5.985706e+00	5.985706e+00	5.985706e+00
1.729235759703442e-01	-9.915015e-01	8.498567e-03	-1.619509e-01	-4.084515e+00	-4.084515e+00	4.084515e+00	4.084515e+00
1.739001384703442e-01	-9.976131e-01	2.386893e-03	-1.650039e-01	-2.167951e+00	-2.167951e+00	2.167951e+00	2.167951e+00
1.748767009703442e-01	-9.999700e-01	3.000868e-05	-1.661812e-01	-2.432274e-01	-2.432274e-01	2.432274e-01	2.432274e-01
1.758532634703442e-01	-9.985632e-01	1.436786e-03	-1.654785e-01	1.682412e+00	1.682412e+00	-1.682412e+00	-1.682412e+00
1.768298259703442e-01	-9.933981e-01	6.601929e-03	-1.628983e-01	3.601719e+00	3.601719e+00	-3.601719e+00	-3.601719e+00
1.778063884703442e-01	-9.844940e-01	1.550600e-02	-1.584505e-01	5.507469e+00	5.507469e+00	-5.507469e+00	-5.507469e+00
1.787829509703442e-01	-9.718845e-01	2.811548e-02	-1.521517e-01	7.392491e+00	7.392491e+00	-7.392491e+00	-7.392491e+00
1.797595134703442e-01	-9.556171e-01	4.438292e-02	-1.440256e-01	9.249689e+00	9.249689e+00	-9.249689e+00	-9.249689e+00
1.807360759703442e-01	-9.357529e-01	6.424708e-02	-1.341029e-01	1.107207e+01	1.107207e+01	-1.107207e+01	-1.107207e+01
1.817126384703442e-01	-9.123668e-01	8.763321e-02	-1.224208e-01	1.285279e+01	1.285279e+01	-1.285279e+01	-1.285279e+01
1.826892009703442e-01	-8.855467e-01	1.144533e-01	-1.090234e-01	1.458512e+01	1.458512e+01	-1.458512e+01	-1.458512e+01
1.836657634703442e-01	-8.553936e-01	1.446063e-01	-9.396106e-02	1.626256e+01	1.626256e+01	-1.626256e+01	-1.626256e+01
1.846423259703442e-01	-8.220211e-01	1.779789e-01	-7.729047e-02	1.787880e+01	1.787880e+01	-1.787880e+01	-1.787880e+01
1.856188884703442e-01	-7.855546e-01	2.144454e-01	-5.907439e-02	1.942774e+01	1.942774e+01	-1.942774e+01	-1.942774e+01
1.865954509703442e-01	-7.461315e-01	2.538685e-01	-3.938137e-02	2.090356e+01	2.090356e+01	-2.090356e+01	-2.090356e+01
1.875720134703442e-01	-7.039001e-01	2.960999e-01	-1.828554e-02	2.230070e+01	2.230070e+01	-2.230070e+01	-2.230070e+01
1.885485759703442e-01	-6.590194e-01	3.409806e-01	4.133703e-03	2.361391e+01	2.361391e+01	-2.361391e+01	-2.361391e+01
1.895251384703442e-01	-6.116582e-01	3.883418e-01	2.779198e-02	2.483824e+01	2.483824e+01	-2.483824e+01	-2.483824e+01
1.905017009703442e-01	-5.619950e-01	4.380050e-01	5.260025e-02	2.596909e+01	2.596909e+01	-2.596909e+01	-2.596909e+01
1.914782634703442e-01	-5.102165e-01	4.897835e-01	7.846513e-02	2.700219e+01	2.700219e+01	-2.700219e+01	-2.700219e+01
1.924548259703442e-01	-4.565177e-01	5.434823e-01	1.052893e-01	2.793366e+01	2.793366e+01	-2.793366e+01	-2.793366e+01
1.934313884703442e-01	-4.011006e-01	5.988994e-01	1.329717e-01	2.876000e+01	2.876000e+01	-2.876000e+01	-2.876000e+01
1.953845134703442e-01	-2.859518e-01	7.140482e-01	1.904920e-01	3.008524e+01	3.008524e+01	-3.008524e+01	-3.008524e+01
1.973376384703442e-01	-1.665020e-01	8.334979e-01	2.501607e-01	3.095796e+01	3.095796e+01	-3.095796e+01	-3.095796e+01
1.992907634703442e-01	-4.454790e-02	9.554521e-01	3.110803e-01	3.136505e+01	3.136505e+01	-3.136505e+01	-3.136505e+01
2.012438884703442e-01	7.807627e-02	1.078076e+00	3.723347e-01	3.130038e+01	3.130038e+01	-3.130038e+01	-3.130038e+01
2.031970134703442e-01	1.995261e-01	1.199526e+00	4.330025e-01	3.076492e+01	3.076492e+01	-3.076492e+01	-3.076492e+01
2.051501384703442e-01	3.179749e-01	1.317975e+00	4.921712e-01	2.976673e+01	2.976673e+01	-2.976673e+01	-2.976673e+01
2.071032634703442e-01	4.316410e-01	1.431641e+00	5.489508e-01	2.832082e+01	2.832082e+01	-2.832082e+01	-2.832082e+01
2.090563884703442e-01	5.388149e-01	1.538815e+00	6.024873e-01	2.644893e+01	2.644893e+01	-2.644893e+01	-2.644893e+01
2.110095134703442e-01	6.378844e-01	1.637884e+00	6.519755e-01	2.417923e+01	2.417923e+01	-2.417923e+01	-2.417923e+01
2.129626384703442e-01	7.273597e-01	1.727360e+00	6.966709e-01	2.154586e+01	2.154586e+01	-2.154586e+01	-2.154586e+01
2.149157634703442e-01	8.058947e-01	1.805895e+00	7.359015e-01	1.858841e+01	1.858841e+01	-1.858841e+01	-1.858841e+01
2.168688884703442e-01	8.723083e-01	1.872308e+00	7.690771e-01	1.535138e+01	1.535138e+01	-1.535138e+01	-1.535138e+01
2.188220134703442e-01	9.256016e-01	1.925602e+00	7.956986e-01	1.188344e+01	1.188344e+01	-1.188344e+01	-1.188344e+01
2.207751384703442e-01	9.649730e-01	1.964973e+00	8.153659e-01	8.236773e+00	8.236773e+00	-8.236773e+00	-8.236773e+00
2.227282634703442e-01	9.898303e-01	1.989830e+00	8.277828e-01	4.466213e+00	4.466213e+00	-4.466213e+00	-4.466213e+00
2.246813884703442e-01	9.997996e-01	1.999800e+00	8.327627e-01	6.284773e-01	6.284773e-01	-6.284773e-01	-6.284773e-01
2.266345134703442e-01	9.947310e-01	1.994731e+00	8.302308e-01	-3.218711e+00	-3.218711e+00	3.218711e+00	3.218711e+00
2.285876384703442e-01	9.747007e-01	1.974701e+00	8.202251e-01	-7.017488e+00	-7.017488e+00	7.017488e+00	7.017488e+00
2.305407634703442e-01	9.400101e-01	1.940010e+00	8.028961e-01	-1.071071e+01	-1.071071e+01	1.071071e+01	1.071071e+01
2.324938884703442e-01	8.911808e-01	1.891181e+00	7.785045e-01	-1.424284e+01	-1.424284e+01	1.424284e+01	1.424284e+01
2.344470134703442e-01	8.289473e-01	1.828947e+00	7.474170e-01	-1.756074e+01	-1.756074e+01	1.756074e+01	1.756074e+01
2.364001384703442e-01	7.542456e-01	1.754246e+00	7.101014e-01	-2.061452e+01	-2.061452e+01	2.061452e+01	2.061452e+01
2.383532634703442e-01	6.681995e-01	1.668200e+00	6.671187e-01	-2.335822e+01	-2.335822e+01	2.335822e+01	2.335822e+01
2.403063884703442e-01	5.721030e-01	1.572103e+00	6.191157e-01	-2.575061e+01	-2.575061e+01	2.575061e+01	2.575061e+01
2.422595134703442e-01	4.674015e-01	1.467402e+00	5.668142e-01	-2.775567e+01	-2.775567e+01	2.775567e+01	2.775567e+01
2.442126384703442e-01	3.556698e-01	1.355670e+00	5.110009e-01	-2.934327e+01	-2.934327e+01	2.934327e+01	2.934327e+01
