time	V(n002)	V(n003)	I(C1)	I(V2)	I(V1)
0.000000000000000e+00	0.000000e+00	1.000000e+00	1.000000e-12	-1.000000e-12	-1.000000e-12
9.999999717180685e-10	6.283185e-08	1.000000e+00	4.712389e+01	-4.712389e+01	-4.712389e+01
1.999999943436137e-09	1.256637e-07	1.000000e+00	6.283185e+01	-6.283185e+01	-6.283185e+01
4.288161386205582e-04	2.697838e-02	1.026978e+00	6.279936e+01	-6.279936e+01	-6.279936e+01
8.576302772411729e-04	5.389180e-02	1.053892e+00	6.272280e+01	-6.272280e+01	-6.272280e+01
1.286444415861788e-03	8.074038e-02	1.080740e+00	6.260217e+01	-6.260217e+01	-6.260217e+01
1.715258554482402e-03	1.075241e-01	1.107524e+00	6.243747e+01	-6.243747e+01	-6.243747e+01
2.144072693103017e-03	1.342430e-01	1.134243e+00	6.222870e+01	-6.222870e+01	-6.222870e+01
2.572886831723632e-03	1.608971e-01	1.160897e+00	6.197586e+01	-6.197586e+01	-6.197586e+01
3.001700970344245e-03	1.874863e-01	1.187486e+00	6.167895e+01	-6.167895e+01	-6.167895e+01
4.954825970344245e-03	3.063163e-01	1.306316e+00	5.977399e+01	-5.977399e+01	-5.977399e+01
6.907950970344245e-03	4.205390e-01	1.420539e+00	5.696997e+01	-5.696997e+01	-5.696997e+01
8.861075970344245e-03	5.284365e-01	1.528436e+00	5.330907e+01	-5.330907e+01	-5.330907e+01
1.081420097034425e-02	6.283857e-01	1.628386e+00	4.884636e+01	-4.884636e+01	-4.884636e+01
1.276732597034425e-02	7.188835e-01	1.718884e+00	4.364894e+01	-4.364894e+01	-4.364894e+01
1.472045097034425e-02	7.985685e-01	1.798568e+00	3.779501e+01	-3.779501e+01	-3.779501e+01
1.667357597034425e-02	8.662424e-01	1.866242e+00	3.137261e+01	-3.137261e+01	-3.137261e+01
1.862670097034425e-02	9.208872e-01	1.920887e+00	2.447833e+01	-2.447833e+01	-2.447833e+01
2.057982597034425e-02	9.616809e-01	1.961681e+00	1.721587e+01	-1.721587e+01	-1.721587e+01
2.253295097034425e-02	9.880101e-01	1.988010e+00	9.694477e+00	-9.694477e+00	-9.694477e+00
2.448607597034425e-02	9.994787e-01	1.999479e+00	2.027266e+00	-2.027266e+00	-2.027266e+00
2.643920097034425e-02	9.959142e-01	1.995914e+00	-5.670438e+00	5.670438e+00	5.670438e+00
2.839232597034425e-02	9.773703e-01	1.977370e+00	-1.328285e+01	1.328285e+01	1.328285e+01
3.034545097034425e-02	9.441257e-01	1.944126e+00	-2.069548e+01	2.069548e+01	2.069548e+01
3.229857597034425e-02	8.966807e-01	1.896681e+00	-2.779683e+01	2.779683e+01	2.779683e+01
3.425170097034425e-02	8.357487e-01	1.835749e+00	-3.448009e+01	3.448009e+01	3.448009e+01
3.620482597034425e-02	7.622463e-01	1.762246e+00	-4.064473e+01	4.064473e+01	4.064473e+01
3.815795097034425e-02	6.772790e-01	1.677279e+00	-4.619804e+01	4.619804e+01	4.619804e+01
4.011107597034425e-02	5.821248e-01	1.582125e+00	-5.105650e+01	5.105650e+01	5.105650e+01
4.206420097034425e-02	4.782149e-01	1.478215e+00	-5.514701e+01	5.514701e+01	5.514701e+01
4.401732597034425e-02	3.671122e-01	1.367112e+00	-5.840806e+01	5.840806e+01	5.840806e+01
4.597045097034425e-02	2.504877e-01	1.250488e+00	-6.079060e+01	6.079060e+01	6.079060e+01
4.792357597034425e-02	1.300958e-01	1.130096e+00	-6.225879e+01	6.225879e+01	6.225879e+01
4.987670097034425e-02	7.747029e-03	1.007747e+00	-6.279055e+01	6.279055e+01	6.279055e+01
5.182982597034425e-02	-1.147182e-01	8.852817e-01	-6.237788e+01	6.237788e+01	6.237788e+01
5.378295097034425e-02	-2.354580e-01	7.645420e-01	-6.102699e+01	6.102699e+01	6.102699e+01
5.573607597034425e-02	-3.526563e-01	6.473437e-01	-5.875820e+01	5.875820e+01	5.875820e+01
5.768920097034425e-02	-4.645503e-01	5.354497e-01	-5.560563e+01	5.560563e+01	5.560563e+01
5.964232597034425e-02	-5.694571e-01	4.305429e-01	-5.161670e+01	5.161670e+01	5.161670e+01
6.061888847034425e-02	-6.187924e-01	3.812076e-01	-4.932689e+01	4.932689e+01	4.932689e+01
6.159545097034425e-02	-6.657986e-01	3.342014e-01	-4.685141e+01	4.685141e+01	4.685141e+01
6.257201347034425e-02	-7.102990e-01	2.897010e-01	-4.419960e+01	4.419960e+01	4.419960e+01
6.354857597034425e-02	-7.521260e-01	2.478740e-01	-4.138143e+01	4.138143e+01	4.138143e+01
6.452513847034425e-02	-7.911221e-01	2.088779e-01	-3.840751e+01	3.840751e+01	3.840751e+01
6.550170097034425e-02	-8.271406e-01	1.728594e-01	-3.528903e+01	3.528903e+01	3.528903e+01
6.647826347034425e-02	-8.600460e-01	1.399540e-01	-3.203773e+01	3.203773e+01	3.203773e+01
6.745482597034425e-02	-8.897144e-01	1.102857e-01	-2.866586e+01	2.866586e+01	2.866586e+01
6.843138847034425e-02	-9.160340e-01	8.396599e-02	-2.518608e+01	2.518608e+01	2.518608e+01
6.940795097034425e-02	-9.389059e-01	6.109409e-02	-2.161152e+01	2.161152e+01	2.161152e+01
7.038451347034425e-02	-9.582440e-01	4.175600e-02	-1.795561e+01	1.795561e+01	1.795561e+01
7.136107597034425e-02	-9.739755e-01	2.602453e-02	-1.423212e+01	1.423212e+01	1.423212e+01
7.233763847034425e-02	-9.860411e-01	1.395889e-02	-1.045507e+01	1.045507e+01	1.045507e+01
7.331420097034425e-02	-9.943955e-01	5.604479e-03	-6.638662e+00	6.638662e+00	6.638662e+00
7.429076347034425e-02	-9.990072e-01	9.927504e-04	-2.797271e+00	2.797271e+00	2.797271e+00
7.526732597034425e-02	-9.998589e-01	1.410593e-04	1.054649e+00	-1.054649e+00	-1.054649e+00
7.624388847034425e-02	-9.969474e-01	3.052612e-03	4.902599e+00	-4.902599e+00	-4.902599e+00
7.722045097034425e-02	-9.902835e-01	9.716448e-03	8.732098e+00	-8.732098e+00	-8.732098e+00
7.819701347034425e-02	-9.798925e-01	2.010749e-02	1.252873e+01	-1.252873e+01	-1.252873e+01
7.917357597034425e-02	-9.658134e-01	3.418662e-02	1.627821e+01	-1.627821e+01	-1.627821e+01
8.015013847034425e-02	-9.480991e-01	5.190086e-02	1.996642e+01	-1.996642e+01	-1.996642e+01
8.112670097034425e-02	-9.268165e-01	7.318353e-02	2.357948e+01	-2.357948e+01	-2.357948e+01
8.210326347034425e-02	-9.020455e-01	9.795453e-02	2.710379e+01	-2.710379e+01	-2.710379e+01
8.307982597034425e-02	-8.738794e-01	1.261206e-01	3.052609e+01	-3.052609e+01	-3.052609e+01
8.405638847034425e-02	-8.424242e-01	1.575758e-01	3.383350e+01	-3.383350e+01	-3.383350e+01
8.503295097034425e-02	-8.077983e-01	1.922017e-01	3.701356e+01	-3.701356e+01	-3.701356e+01
8.600951347034425e-02	-7.701321e-01	2.298679e-01	4.005432e+01	-4.005432e+01	-4.005432e+01
8.698607597034425e-02	-7.295672e-01	2.704328e-01	4.294432e+01	-4.294432e+01	-4.294432e+01
8.796263847034425e-02	-6.862565e-01	3.137435e-01	4.567268e+01	-4.567268e+01	-4.567268e+01
8.893920097034425e-02	-6.403628e-01	3.596372e-01	4.822915e+01	-4.822915e+01	-4.822915e+01
8.991576347034425e-02	-5.920589e-01	4.079411e-01	5.060409e+01	-5.060409e+01	-5.060409e+01
9.186888847034425e-02	-4.889562e-01	5.110437e-01	5.477436e+01	-5.477436e+01	-5.477436e+01
9.382201347034425e-02	-3.784992e-01	6.215008e-01	5.812078e+01	-5.812078e+01	-5.812078e+01
9.577513847034425e-02	-2.623492e-01	7.376508e-01	6.059300e+01	-6.059300e+01	-6.059300e+01
9.772826347034425e-02	-1.422532e-01	8.577468e-01	6.215385e+01	-6.215385e+01	-6.215385e+01
9.968138847034425e-02	-2.001762e-02	9.799824e-01	6.277985e+01	-6.277985e+01	-6.277985e+01
1.016345134703442e-01	1.025191e-01	1.102519e+00	6.246158e+01	-6.246158e+01	-6.246158e+01
1.035876384703442e-01	2.235138e-01	1.223514e+00	6.120383e+01	-6.120383e+01	-6.120383e+01
1.055407634703442e-01	3.411466e-01	1.341147e+00	5.902552e+01	-5.902552e+01	-5.902552e+01
1.074938884703442e-01	4.536483e-01	1.453648e+00	5.595941e+01	-5.595941e+01	-5.595941e+01
1.094470134703442e-01	5.593267e-01	1.559327e+00	5.205162e+01	-5.205162e+01	-5.205162e+01
1.114001384703442e-01	6.565923e-01	1.656592e+00	4.736092e+01	-4.736092e+01	-4.736092e+01
1.133532634703442e-01	7.439821e-01	1.743982e+00	4.195787e+01	-4.195787e+01	-4.195787e+01
1.153063884703442e-01	8.201818e-01	1.820182e+00	3.592374e+01	-3.592374e+01	-3.592374e+01
1.172595134703442e-01	8.840452e-01	1.884045e+00	2.934928e+01	-2.934928e+01	-2.934928e+01
1.192126384703442e-01	9.346117e-01	1.934612e+00	2.233337e+01	-2.233337e+01	-2.233337e+01
1.211657634703442e-01	9.711207e-01	1.971121e+00	1.498156e+01	-1.498156e+01	-1.498156e+01
1.231188884703442e-01	9.930233e-01	1.993023e+00	7.404404e+00	-7.404404e+00	-7.404404e+00
1.250720134703442e-01	9.999897e-01	1.999990e+00	-2.841184e-01	2.841184e-01	2.841184e-01
1.270251384703442e-01	9.919155e-01	1.991915e+00	-7.968367e+00	7.968367e+00	7.968367e+00
1.289782634703442e-01	9.689219e-01	1.968922e+00	-1.553276e+01	1.553276e+01	1.553276e+01
1.309313884703442e-01	9.313548e-01	1.931355e+00	-2.286353e+01	2.286353e+01	2.286353e+01
1.328845134703442e-01	8.797793e-01	1.879779e+00	-2.985042e+01	2.985042e+01	2.985042e+01
1.348376384703442e-01	8.149711e-01	1.814971e+00	-3.638832e+01	3.638832e+01	3.638832e+01
1.367907634703442e-01	7.379049e-01	1.737905e+00	-4.237891e+01	4.237891e+01	4.237891e+01
1.387438884703442e-01	6.497400e-01	1.649740e+00	-4.773208e+01	4.773208e+01	4.773208e+01
1.406970134703442e-01	5.518024e-01	1.551802e+00	-5.236731e+01	5.236731e+01	5.236731e+01
1.426501384703442e-01	4.455651e-01	1.445565e+00	-5.621490e+01	5.621490e+01	5.621490e+01
1.446032634703442e-01	3.326262e-01	1.332626e+00	-5.921695e+01	5.921695e+01	5.921695e+01
1.465563884703442e-01	2.146842e-01	1.214684e+00	-6.132833e+01	6.132833e+01	6.132833e+01
1.485095134703442e-01	9.351320e-02	1.093513e+00	-6.251728e+01	6.251728e+01	6.251728e+01
1.504626384703442e-01	-2.906434e-02	9.709356e-01	-6.276591e+01	6.276591e+01	6.276591e+01
1.524157634703442e-01	-1.512047e-01	8.487953e-01	-6.207048e+01	6.207048e+01	6.207048e+01
1.543688884703442e-01	-2.710708e-01	7.289292e-01	-6.044145e+01	6.044145e+01	6.044145e+01
1.563220134703442e-01	-3.868598e-01	6.131402e-01	-5.790332e+01	5.790332e+01	5.790332e+01
1.582751384703442e-01	-4.968300e-01	5.031700e-01	-5.449428e+01	5.449428e+01	5.449428e+01
1.602282634703442e-01	-5.993275e-01	4.006725e-01	-5.026559e+01	5.026559e+01	5.026559e+01
1.612048259703442e-01	-6.472871e-01	3.527129e-01	-4.786330e+01	4.786330e+01	4.786330e+01
1.621813884703442e-01	-6.928105e-01	3.071895e-01	-4.528086e+01	4.528086e+01	4.528086e+01
1.631579509703442e-01	-7.357263e-01	2.642737e-01	-4.252799e+01	4.252799e+01	4.252799e+01
1.641345134703442e-01	-7.758730e-01	2.241270e-01	-3.961506e+01	3.961506e+01	3.961506e+01
1.651110759703442e-01	-8.130995e-01	1.869005e-01	-3.655303e+01	3.655303e+01	3.655303e+01
1.660876384703442e-01	-8.472657e-01	1.527344e-01	-3.335342e+01	3.335342e+01	3.335342e+01
1.670642009703442e-01	-8.782429e-01	1.217571e-01	-3.002827e+01	3.002827e+01	3.002827e+01
1.680407634703442e-01	-9.059146e-01	9.408540e-02	-2.659011e+01	2.659011e+01	2.659011e+01
1.690173259703442e-01	-9.301767e-01	6.982332e-02	-2.305187e+01	2.305187e+01	2.305187e+01
1.699938884703442e-01	-9.509378e-01	4.906221e-02	-1.942686e+01	1.942686e+01	1.942686e+01
1.709704509703442e-01	-9.681197e-01	3.188023e-02	-1.572873e+01	1.572873e+01	1.572873e+01
1.719470134703442e-01	-9.816580e-01	1.834203e-02	-1.197141e+01	1.197141e+01	1.197141e+01
1.729235759703442e-01	-9.915015e-01	8.498567e-03	-8.169030e+00	8.169030e+00	8.169030e+00
1.739001384703442e-01	-9.976131e-01	2.386893e-03	-4.335902e+00	4.335902e+00	4.335902e+00
1.748767009703442e-01	-9.999700e-01	3.000868e-05	-4.864548e-01	4.864548e-01	4.864548e-01
1.758532634703442e-01	-9.985632e-01	1.436786e-03	3.364823e+00	-3.364823e+00	-3.364823e+00
1.768298259703442e-01	-9.933981e-01	6.601929e-03	7.203437e+00	-7.203437e+00	-7.203437e+00
1.778063884703442e-01	-9.844940e-01	1.550600e-02	1.101494e+01	-1.101494e+01	-1.101494e+01
1.787829509703442e-01	-9.718845e-01	2.811548e-02	1.478498e+01	-1.478498e+01	-1.478498e+01
1.797595134703442e-01	-9.556171e-01	4.438292e-02	1.849938e+01	-1.849938e+01	-1.849938e+01
1.807360759703442e-01	-9.357529e-01	6.424708e-02	2.214415e+01	-2.214415e+01	-2.214415e+01
1.817126384703442e-01	-9.123668e-01	8.763321e-02	2.570557e+01	-2.570557e+01	-2.570557e+01
1.826892009703442e-01	-8.855467e-01	1.144533e-01	2.917025e+01	-2.917025e+01	-2.917025e+01
1.836657634703442e-01	-8.553936e-01	1.446063e-01	3.252513e+01	-3.252513e+01	-3.252513e+01
1.846423259703442e-01	-8.220211e-01	1.779789e-01	3.575760e+01	-3.575760e+01	-3.575760e+01
1.856188884703442e-01	-7.855546e-01	2.144454e-01	3.885548e+01	-3.885548e+01	-3.885548e+01
1.865954509703442e-01	-7.461315e-01	2.538685e-01	4.180712e+01	-4.180712e+01	-4.180712e+01
1.875720134703442e-01	-7.039001e-01	2.960999e-01	4.460140e+01	-4.460140e+01	-4.460140e+01
1.885485759703442e-01	-6.590194e-01	3.409806e-01	4.722782e+01	-4.722782e+01	-4.722782e+01
1.895251384703442e-01	-6.116582e-01	3.883418e-01	4.967648e+01	-4.967648e+01	-4.967648e+01
1.914782634703442e-01	-5.102165e-01	4.897835e-01	5.400438e+01	-5.400438e+01	-5.400438e+01
1.934313884703442e-01	-4.011006e-01	5.988994e-01	5.752000e+01	-5.752000e+01	-5.752000e+01
1.953845134703442e-01	-2.859518e-01	7.140482e-01	6.017047e+01	-6.017047e+01	-6.017047e+01
1.973376384703442e-01	-1.665020e-01	8.334979e-01	6.191592e+01	-6.191592e+01	-6.191592e+01
1.992907634703442e-01	-4.454790e-02	9.554521e-01	6.273009e+01	-6.273009e+01	-6.273009e+01
2.012438884703442e-01	7.807627e-02	1.078076e+00	6.260075e+01	-6.260075e+01	-6.260075e+01
2.031970134703442e-01	1.995261e-01	1.199526e+00	6.152983e+01	-6.152983e+01	-6.152983e+01
2.051501384703442e-01	3.179749e-01	1.317975e+00	5.953345e+01	-5.953345e+01	-5.953345e+01
2.071032634703442e-01	4.316410e-01	1.431641e+00	5.664163e+01	-5.664163e+01	-5.664163e+01
2.090563884703442e-01	5.388149e-01	1.538815e+00	5.289787e+01	-5.289787e+01	-5.289787e+01
2.110095134703442e-01	6.378844e-01	1.637884e+00	4.835847e+01	-4.835847e+01	-4.835847e+01
2.129626384703442e-01	7.273597e-01	1.727360e+00	4.309171e+01	-4.309171e+01	-4.309171e+01
2.149157634703442e-01	8.058947e-01	1.805895e+00	3.717682e+01	-3.717682e+01	-3.717682e+01
2.168688884703442e-01	8.723083e-01	1.872308e+00	3.070275e+01	-3.070275e+01	-3.070275e+01
2.188220134703442e-01	9.256016e-01	1.925602e+00	2.376689e+01	-2.376689e+01	-2.376689e+01
2.207751384703442e-01	9.649730e-01	1.964973e+00	1.647355e+01	-1.647355e+01	-1.647355e+01
2.227282634703442e-01	9.898303e-01	1.989830e+00	8.932426e+00	-8.932426e+00	-8.932426e+00
2.246813884703442e-01	9.997996e-01	1.999800e+00	1.256955e+00	-1.256955e+00	-1.256955e+00
2.266345134703442e-01	9.947310e-01	1.994731e+00	-6.437422e+00	6.437422e+00	6.437422e+00
2.285876384703442e-01	9.747007e-01	1.974701e+00	-1.403498e+01	1.403498e+01	1.403498e+01
2.305407634703442e-01	9.400101e-01	1.940010e+00	-2.142143e+01	2.142143e+01	2.142143e+01
2.324938884703442e-01	8.911808e-01	1.891181e+00	-2.848568e+01	2.848568e+01	2.848568e+01
2.344470134703442e-01	8.289473e-01	1.828947e+00	-3.512149e+01	3.512149e+01	3.512149e+01
2.364001384703442e-01	7.542456e-01	1.754246e+00	-4.122903e+01	4.122903e+01	4.122903e+01
2.383532634703442e-01	6.681995e-01	1.668200e+00	-4.671645e+01	4.671645e+01	4.671645e+01
2.403063884703442e-01	5.721030e-01	1.572103e+00	-5.150121e+01	5.150121e+01	5.150121e+01
2.422595134703442e-01	4.674015e-01	1.467402e+00	-5.551135e+01	5.551135e+01	5.551135e+01
2.442126384703442e-01	3.556698e-01	1.355670e+00	-5.868654e+01	5.868654e+01	5.868654e+01
2.461657634703442e-01	2.385886e-01	1.238589e+00	-6.097903e+01	6.097903e+01	6.097903e+01
2.481188884703442e-01	1.179187e-01	1.117919e+00	-6.235435e+01	6.235435e+01	6.235435e+01
2.500720134703442e-01	-4.524725e-03	9.954753e-01	-6.279179e+01	6.279179e+01	6.279179e+01
2.520251384703442e-01	-1.269001e-01	8.730999e-01	-6.228479e+01	6.228479e+01	6.228479e+01
2.539782634703442e-01	-2.473668e-01	7.526332e-01	-6.084097e+01	6.084097e+01	6.084097e+01
2.559313884703442e-01	-3.641129e-01	6.358871e-01	-5.848204e+01	5.848204e+01	5.848204e+01
2.578845134703442e-01	-4.753824e-01	5.246176e-01	-5.524348e+01	5.524348e+01	5.524348e+01
2.598376384703442e-01	-5.795016e-01	4.204984e-01	-5.117402e+01	5.117402e+01	5.117402e+01
2.608142009703442e-01	-6.283857e-01	3.716143e-01	-4.884636e+01	4.884636e+01	4.884636e+01
2.617907634703442e-01	-6.749047e-01	3.250953e-01	-4.633485e+01	4.633485e+01	4.633485e+01
2.627673259703442e-01	-7.188835e-01	2.811165e-01	-4.364894e+01	4.364894e+01	4.364894e+01
2.637438884703442e-01	-7.601565e-01	2.398435e-01	-4.079876e+01	4.079876e+01	4.079876e+01
2.647204509703442e-01	-7.985685e-01	2.014315e-01	-3.779501e+01	3.779501e+01	3.779501e+01
2.656970134703442e-01	-8.339749e-01	1.660251e-01	-3.464901e+01	3.464901e+01	3.464901e+01
2.666735759703442e-01	-8.662424e-01	1.337576e-01	-3.137261e+01	3.137261e+01	3.137261e+01
2.676501384703442e-01	-8.952495e-01	1.047505e-01	-2.797812e+01	2.797812e+01	2.797812e+01
2.686267009703442e-01	-9.208872e-01	7.911285e-02	-2.447833e+01	2.447833e+01	2.447833e+01
2.696032634703442e-01	-9.430588e-01	5.694124e-02	-2.088641e+01	2.088641e+01	2.088641e+01
2.705798259703442e-01	-9.616809e-01	3.831909e-02	-1.721587e+01	1.721587e+01	1.721587e+01
2.715563884703442e-01	-9.766835e-01	2.331649e-02	-1.348054e+01	1.348054e+01	1.348054e+01
2.725329509703442e-01	-9.880101e-01	1.198990e-02	-9.694477e+00	9.694477e+00	9.694477e+00
2.735095134703442e-01	-9.956180e-01	4.381960e-03	-5.871922e+00	5.871922e+00	5.871922e+00
2.744860759703442e-01	-9.994787e-01	5.213026e-04	-2.027266e+00	2.027266e+00	2.027266e+00
2.754626384703442e-01	-9.995775e-01	4.224571e-04	1.825021e+00	-1.825021e+00	-1.825021e+00
2.764392009703442e-01	-9.959142e-01	4.085796e-03	5.670438e+00	-5.670438e+00	-5.670438e+00
2.774157634703442e-01	-9.885024e-01	1.149753e-02	9.494513e+00	-9.494513e+00	-9.494513e+00
2.783923259703442e-01	-9.773703e-01	2.262977e-02	1.328285e+01	-1.328285e+01	-1.328285e+01
2.793688884703442e-01	-9.625594e-01	3.744060e-02	1.702120e+01	-1.702120e+01	-1.702120e+01
2.803454509703442e-01	-9.441257e-01	5.587430e-02	2.069548e+01	-2.069548e+01	-2.069548e+01
2.813220134703442e-01	-9.221385e-01	7.786147e-02	2.429187e+01	-2.429187e+01	-2.429187e+01
2.822985759703442e-01	-8.966807e-01	1.033194e-01	2.779683e+01	-2.779683e+01	-2.779683e+01
2.832751384703442e-01	-8.678479e-01	1.321521e-01	3.119717e+01	-3.119717e+01	-3.119717e+01
2.842517009703442e-01	-8.357487e-01	1.642513e-01	3.448009e+01	-3.448009e+01	-3.448009e+01
2.852282634703442e-01	-8.005039e-01	1.994961e-01	3.763323e+01	-3.763323e+01	-3.763323e+01
2.862048259703442e-01	-7.622463e-01	2.377537e-01	4.064473e+01	-4.064473e+01	-4.064473e+01
2.871813884703442e-01	-7.211197e-01	2.788803e-01	4.350326e+01	-4.350326e+01	-4.350326e+01
2.881579509703442e-01	-6.772790e-01	3.227210e-01	4.619805e+01	-4.619805e+01	-4.619805e+01
2.891345134703442e-01	-6.308891e-01	3.691109e-01	4.871896e+01	-4.871896e+01	-4.871896e+01
2.901110759703442e-01	-5.821248e-01	4.178752e-01	5.105650e+01	-5.105650e+01	-5.105650e+01
2.920642009703442e-01	-4.782149e-01	5.217851e-01	5.514701e+01	-5.514701e+01	-5.514701e+01
2.940173259703442e-01	-3.671122e-01	6.328878e-01	5.840806e+01	-5.840806e+01	-5.840806e+01
2.959704509703442e-01	-2.504877e-01	7.495123e-01	6.079060e+01	-6.079060e+01	-6.079060e+01
2.979235759703442e-01	-1.300958e-01	8.699042e-01	6.225879e+01	-6.225879e+01	-6.225879e+01
2.998767009703442e-01	-7.747029e-03	9.922529e-01	6.279055e+01	-6.279055e+01	-6.279055e+01
3.018298259703442e-01	1.147182e-01	1.114718e+00	6.237788e+01	-6.237788e+01	-6.237788e+01
3.037829509703442e-01	2.354580e-01	1.235458e+00	6.102699e+01	-6.102699e+01	-6.102699e+01
3.057360759703442e-01	3.526563e-01	1.352656e+00	5.875821e+01	-5.875821e+01	-5.875821e+01
3.076892009703442e-01	4.645503e-01	1.464550e+00	5.560563e+01	-5.560563e+01	-5.560563e+01
3.096423259703442e-01	5.694571e-01	1.569457e+00	5.161671e+01	-5.161671e+01	-5.161671e+01
3.115954509703442e-01	6.657986e-01	1.665799e+00	4.685141e+01	-4.685141e+01	-4.685141e+01
3.135485759703442e-01	7.521260e-01	1.752126e+00	4.138143e+01	-4.138143e+01	-4.138143e+01
3.155017009703442e-01	8.271406e-01	1.827141e+00	3.528903e+01	-3.528903e+01	-3.528903e+01
3.174548259703442e-01	8.897144e-01	1.889714e+00	2.866586e+01	-2.866586e+01	-2.866586e+01
3.194079509703442e-01	9.389059e-01	1.938906e+00	2.161152e+01	-2.161152e+01	-2.161152e+01
3.213610759703442e-01	9.739755e-01	1.973975e+00	1.423212e+01	-1.423212e+01	-1.423212e+01
3.233142009703442e-01	9.943955e-01	1.994395e+00	6.638662e+00	-6.638662e+00	-6.638662e+00
3.252673259703442e-01	9.998589e-01	1.999859e+00	-1.054649e+00	1.054649e+00	1.054649e+00
3.272204509703442e-01	9.902835e-01	1.990284e+00	-8.732098e+00	8.732098e+00	8.732098e+00
3.291735759703442e-01	9.658134e-01	1.965813e+00	-1.627821e+01	1.627821e+01	1.627821e+01
3.311267009703442e-01	9.268165e-01	1.926816e+00	-2.357948e+01	2.357948e+01	2.357948e+01
