time	V(n002)	V(n001)	V(n003)	I(L1)	I(R1)	I(V2)	I(V1)
0.000000000000000e+00	0.000000e+00	1.000000e+00	9.990010e-04	9.990010e-01	9.990010e-01	-9.990010e-01	-9.990010e-01
4.288144243348923e-04	2.697828e-02	1.026978e+00	2.795265e-02	9.990104e-01	9.990104e-01	-9.990104e-01	-9.990104e-01
8.576288486697847e-04	5.389171e-02	1.053892e+00	5.482714e-02	9.990308e-01	9.990308e-01	-9.990308e-01	-9.990308e-01
1.286443273004677e-03	8.074031e-02	1.080740e+00	8.162249e-02	9.990622e-01	9.990622e-01	-9.990622e-01	-9.990622e-01
1.715257697339569e-03	1.075241e-01	1.107524e+00	1.083387e-01	9.991046e-01	9.991046e-01	-9.991046e-01	-9.991046e-01
2.144072121674462e-03	1.342430e-01	1.134243e+00	1.349757e-01	9.991579e-01	9.991579e-01	-9.991579e-01	-9.991579e-01
2.572886546009354e-03	1.608971e-01	1.160897e+00	1.615336e-01	9.992222e-01	9.992222e-01	-9.992222e-01	-9.992222e-01
3.001700970344245e-03	1.874863e-01	1.187486e+00	1.880124e-01	9.992975e-01	9.992975e-01	-9.992975e-01	-9.992975e-01
4.954825970344245e-03	3.063163e-01	1.306316e+00	3.062494e-01	9.997787e-01	9.997787e-01	-9.997787e-01	-9.997787e-01
6.907950970344245e-03	4.205390e-01	1.420539e+00	4.196570e-01	1.000486e+00	1.000486e+00	-1.000486e+00	-1.000486e+00
8.861075970344245e-03	5.284365e-01	1.528436e+00	5.265299e-01	1.001409e+00	1.001409e+00	-1.001409e+00	-1.001409e+00
1.081420097034425e-02	6.283857e-01	1.628386e+00	6.252612e-01	1.002533e+00	1.002533e+00	-1.002533e+00	-1.002533e+00
1.276732597034425e-02	7.188835e-01	1.718884e+00	7.143663e-01	1.003841e+00	1.003841e+00	-1.003841e+00	-1.003841e+00
1.472045097034425e-02	7.985685e-01	1.798568e+00	7.925053e-01	1.005312e+00	1.005312e+00	-1.005312e+00	-1.005312e+00
1.667357597034425e-02	8.662424e-01	1.866242e+00	8.585036e-01	1.006924e+00	1.006924e+00	-1.006924e+00	-1.006924e+00
1.862670097034425e-02	9.208872e-01	1.920887e+00	9.113689e-01	1.008652e+00	1.008652e+00	-1.008652e+00	-1.008652e+00
2.057982597034425e-02	9.616809e-01	1.961681e+00	9.503065e-01	1.010470e+00	1.010470e+00	-1.010470e+00	-1.010470e+00
2.253295097034425e-02	9.880101e-01	1.988010e+00	9.747311e-01	1.012349e+00	1.012349e+00	-1.012349e+00	-1.012349e+00
2.448607597034425e-02	9.994787e-01	1.999479e+00	9.842760e-01	1.014262e+00	1.014262e+00	-1.014262e+00	-1.014262e+00
2.643920097034425e-02	9.959142e-01	1.995914e+00	9.787980e-01	1.016179e+00	1.016179e+00	-1.016179e+00	-1.016179e+00
2.839232597034425e-02	9.773703e-01	1.977370e+00	9.583799e-01	1.018071e+00	1.018071e+00	-1.018071e+00	-1.018071e+00
3.034545097034425e-02	9.441257e-01	1.944126e+00	9.233292e-01	1.019908e+00	1.019908e+00	-1.019908e+00	-1.019908e+00
3.229857597034425e-02	8.966807e-01	1.896681e+00	8.741738e-01	1.021663e+00	1.021663e+00	-1.021663e+00	-1.021663e+00
3.425170097034425e-02	8.357487e-01	1.835749e+00	8.116532e-01	1.023309e+00	1.023309e+00	-1.023309e+00	-1.023309e+00
3.620482597034425e-02	7.622463e-01	1.762246e+00	7.367084e-01	1.024821e+00	1.024821e+00	-1.024821e+00	-1.024821e+00
3.815795097034425e-02	6.772790e-01	1.677279e+00	6.504672e-01	1.026175e+00	1.026175e+00	-1.026175e+00	-1.026175e+00
4.011107597034425e-02	5.821248e-01	1.582125e+00	5.542269e-01	1.027350e+00	1.027350e+00	-1.027350e+00	-1.027350e+00
4.206420097034425e-02	4.782149e-01	1.478215e+00	4.494356e-01	1.028329e+00	1.028329e+00	-1.028329e+00	-1.028329e+00
4.401732597034425e-02	3.671122e-01	1.367112e+00	3.376701e-01	1.029097e+00	1.029097e+00	-1.029097e+00	-1.029097e+00
4.597045097034425e-02	2.504877e-01	1.250488e+00	2.206117e-01	1.029640e+00	1.029640e+00	-1.029640e+00	-1.029640e+00
4.792357597034425e-02	1.300958e-01	1.130096e+00	1.000215e-01	1.029952e+00	1.029952e+00	-1.029952e+00	-1.029952e+00
4.987670097034425e-02	7.747029e-03	1.007747e+00	-2.228607e-02	1.030026e+00	1.030026e+00	-1.030026e+00	-1.030026e+00
5.182982597034425e-02	-1.147182e-01	8.852817e-01	-1.444711e-01	1.029861e+00	1.029861e+00	-1.029861e+00	-1.029861e+00
5.378295097034425e-02	-2.354580e-01	7.645420e-01	-2.646953e-01	1.029459e+00	1.029459e+00	-1.029459e+00	-1.029459e+00
5.573607597034425e-02	-3.526563e-01	6.473437e-01	-3.811501e-01	1.028826e+00	1.028826e+00	-1.028826e+00	-1.028826e+00
5.768920097034425e-02	-4.645503e-01	5.354497e-01	-4.920833e-01	1.027970e+00	1.027970e+00	-1.027970e+00	-1.027970e+00
5.964232597034425e-02	-5.694571e-01	4.305429e-01	-5.958259e-01	1.026905e+00	1.026905e+00	-1.026905e+00	-1.026905e+00
6.061888847034425e-02	-6.187924e-01	3.812076e-01	-6.445081e-01	1.026298e+00	1.026298e+00	-1.026298e+00	-1.026298e+00
6.159545097034425e-02	-6.657986e-01	3.342014e-01	-6.908172e-01	1.025645e+00	1.025645e+00	-1.025645e+00	-1.025645e+00
6.257201347034425e-02	-7.102990e-01	2.897010e-01	-7.345787e-01	1.024948e+00	1.024948e+00	-1.024948e+00	-1.024948e+00
6.354857597034425e-02	-7.521260e-01	2.478740e-01	-7.756279e-01	1.024210e+00	1.024210e+00	-1.024210e+00	-1.024210e+00
6.452513847034425e-02	-7.911221e-01	2.088779e-01	-8.138102e-01	1.023432e+00	1.023432e+00	-1.023432e+00	-1.023432e+00
6.550170097034425e-02	-8.271406e-01	1.728594e-01	-8.489820e-01	1.022620e+00	1.022620e+00	-1.022620e+00	-1.022620e+00
6.647826347034425e-02	-8.600460e-01	1.399540e-01	-8.810107e-01	1.021774e+00	1.021774e+00	-1.021774e+00	-1.021774e+00
6.745482597034425e-02	-8.897144e-01	1.102857e-01	-9.097756e-01	1.020898e+00	1.020898e+00	-1.020898e+00	-1.020898e+00
6.843138847034425e-02	-9.160340e-01	8.396599e-02	-9.351687e-01	1.019997e+00	1.019997e+00	-1.019997e+00	-1.019997e+00
6.940795097034425e-02	-9.389059e-01	6.109409e-02	-9.570941e-01	1.019072e+00	1.019072e+00	-1.019072e+00	-1.019072e+00
7.038451347034425e-02	-9.582440e-01	4.175600e-02	-9.754694e-01	1.018127e+00	1.018127e+00	-1.018127e+00	-1.018127e+00
7.136107597034425e-02	-9.739755e-01	2.602453e-02	-9.902252e-01	1.017166e+00	1.017166e+00	-1.017166e+00	-1.017166e+00
7.233763847034425e-02	-9.860411e-01	1.395889e-02	-1.001306e+00	1.016193e+00	1.016193e+00	-1.016193e+00	-1.016193e+00
7.331420097034425e-02	-9.943955e-01	5.604479e-03	-1.008670e+00	1.015210e+00	1.015210e+00	-1.015210e+00	-1.015210e+00
7.429076347034425e-02	-9.990072e-01	9.927504e-04	-1.012290e+00	1.014223e+00	1.014223e+00	-1.014223e+00	-1.014223e+00
7.526732597034425e-02	-9.998589e-01	1.410593e-04	-1.012151e+00	1.013233e+00	1.013233e+00	-1.013233e+00	-1.013233e+00
7.624388847034425e-02	-9.969474e-01	3.052612e-03	-1.008255e+00	1.012246e+00	1.012246e+00	-1.012246e+00	-1.012246e+00
7.722045097034425e-02	-9.902835e-01	9.716448e-03	-1.000615e+00	1.011264e+00	1.011264e+00	-1.011264e+00	-1.011264e+00
7.819701347034425e-02	-9.798925e-01	2.010749e-02	-9.892616e-01	1.010291e+00	1.010291e+00	-1.010291e+00	-1.010291e+00
7.917357597034425e-02	-9.658134e-01	3.418662e-02	-9.742360e-01	1.009331e+00	1.009331e+00	-1.009331e+00	-1.009331e+00
8.015013847034425e-02	-9.480991e-01	5.190086e-02	-9.555951e-01	1.008388e+00	1.008388e+00	-1.008388e+00	-1.008388e+00
8.112670097034425e-02	-9.268165e-01	7.318353e-02	-9.334092e-01	1.007465e+00	1.007465e+00	-1.007465e+00	-1.007465e+00
8.210326347034425e-02	-9.020455e-01	9.795453e-02	-9.077615e-01	1.006565e+00	1.006565e+00	-1.006565e+00	-1.006565e+00
8.307982597034425e-02	-8.738794e-01	1.261206e-01	-8.787485e-01	1.005692e+00	1.005692e+00	-1.005692e+00	-1.005692e+00
8.405638847034425e-02	-8.424242e-01	1.575758e-01	-8.464796e-01	1.004848e+00	1.004848e+00	-1.004848e+00	-1.004848e+00
8.503295097034425e-02	-8.077983e-01	1.922017e-01	-8.110760e-01	1.004038e+00	1.004038e+00	-1.004038e+00	-1.004038e+00
8.600951347034425e-02	-7.701321e-01	2.298679e-01	-7.726709e-01	1.003263e+00	1.003263e+00	-1.003263e+00	-1.003263e+00
8.698607597034425e-02	-7.295672e-01	2.704328e-01	-7.314088e-01	1.002528e+00	1.002528e+00	-1.002528e+00	-1.002528e+00
8.796263847034425e-02	-6.862565e-01	3.137435e-01	-6.874450e-01	1.001834e+00	1.001834e+00	-1.001834e+00	-1.001834e+00
8.893920097034425e-02	-6.403628e-01	3.596372e-01	-6.409450e-01	1.001185e+00	1.001185e+00	-1.001185e+00	-1.001185e+00
8.991576347034425e-02	-5.920589e-01	4.079411e-01	-5.920835e-01	1.000582e+00	1.000582e+00	-1.000582e+00	-1.000582e+00
9.186888847034425e-02	-4.889562e-01	5.110437e-01	-4.880201e-01	9.995239e-01	9.995239e-01	-9.995239e-01	-9.995239e-01
9.382201347034425e-02	-3.784992e-01	6.215008e-01	-3.768197e-01	9.986766e-01	9.986766e-01	-9.986766e-01	-9.986766e-01
9.577513847034425e-02	-2.623492e-01	7.376508e-01	-2.601544e-01	9.980521e-01	9.980521e-01	-9.980521e-01	-9.980521e-01
9.772826347034425e-02	-1.422532e-01	8.577468e-01	-1.397786e-01	9.976592e-01	9.976592e-01	-9.976592e-01	-9.976592e-01
9.968138847034425e-02	-2.001762e-02	9.799824e-01	-1.750233e-02	9.975035e-01	9.975035e-01	-9.975035e-01	-9.975035e-01
1.016345134703442e-01	1.025191e-01	1.102519e+00	1.048356e-01	9.975870e-01	9.975870e-01	-9.975870e-01	-9.975870e-01
1.035876384703442e-01	2.235138e-01	1.223514e+00	2.253956e-01	9.979079e-01	9.979079e-01	-9.979079e-01	-9.979079e-01
1.055407634703442e-01	3.411466e-01	1.341147e+00	3.423647e-01	9.984609e-01	9.984609e-01	-9.984609e-01	-9.984609e-01
1.074938884703442e-01	4.536483e-01	1.453648e+00	4.539841e-01	9.992374e-01	9.992374e-01	-9.992374e-01	-9.992374e-01
1.094470134703442e-01	5.593267e-01	1.559327e+00	5.585752e-01	1.000225e+00	1.000225e+00	-1.000225e+00	-1.000225e+00
1.114001384703442e-01	6.565923e-01	1.656592e+00	6.545654e-01	1.001409e+00	1.001409e+00	-1.001409e+00	-1.001409e+00
1.133532634703442e-01	7.439821e-01	1.743982e+00	7.405112e-01	1.002771e+00	1.002771e+00	-1.002771e+00	-1.002771e+00
1.153063884703442e-01	8.201818e-01	1.820182e+00	8.151206e-01	1.004290e+00	1.004290e+00	-1.004290e+00	-1.004290e+00
1.172595134703442e-01	8.840452e-01	1.884045e+00	8.772715e-01	1.005942e+00	1.005942e+00	-1.005942e+00	-1.005942e+00
1.192126384703442e-01	9.346117e-01	1.934612e+00	9.260296e-01	1.007703e+00	1.007703e+00	-1.007703e+00	-1.007703e+00
1.211657634703442e-01	9.711207e-01	1.971121e+00	9.606621e-01	1.009545e+00	1.009545e+00	-1.009545e+00	-1.009545e+00
1.231188884703442e-01	9.930233e-01	1.993023e+00	9.806483e-01	1.011441e+00	1.011441e+00	-1.011441e+00	-1.011441e+00
1.250720134703442e-01	9.999897e-01	1.999990e+00	9.856882e-01	1.013361e+00	1.013361e+00	-1.013361e+00	-1.013361e+00
1.270251384703442e-01	9.919155e-01	1.991915e+00	9.757062e-01	1.015276e+00	1.015276e+00	-1.015276e+00	-1.015276e+00
1.289782634703442e-01	9.689219e-01	1.968922e+00	9.508530e-01	1.017157e+00	1.017157e+00	-1.017157e+00	-1.017157e+00
1.309313884703442e-01	9.313548e-01	1.931355e+00	9.115028e-01	1.018976e+00	1.018976e+00	-1.018976e+00	-1.018976e+00
1.328845134703442e-01	8.797793e-01	1.879779e+00	8.582479e-01	1.020704e+00	1.020704e+00	-1.020704e+00	-1.020704e+00
1.348376384703442e-01	8.149711e-01	1.814971e+00	7.918897e-01	1.022315e+00	1.022315e+00	-1.022315e+00	-1.022315e+00
1.367907634703442e-01	7.379049e-01	1.737905e+00	7.134266e-01	1.023784e+00	1.023784e+00	-1.023784e+00	-1.023784e+00
1.387438884703442e-01	6.497400e-01	1.649740e+00	6.240393e-01	1.025089e+00	1.025089e+00	-1.025089e+00	-1.025089e+00
1.406970134703442e-01	5.518024e-01	1.551802e+00	5.250726e-01	1.026211e+00	1.026211e+00	-1.026211e+00	-1.026211e+00
1.426501384703442e-01	4.455651e-01	1.445565e+00	4.180154e-01	1.027130e+00	1.027130e+00	-1.027130e+00	-1.027130e+00
1.446032634703442e-01	3.326262e-01	1.332626e+00	3.044785e-01	1.027835e+00	1.027835e+00	-1.027835e+00	-1.027835e+00
1.465563884703442e-01	2.146842e-01	1.214684e+00	1.861699e-01	1.028312e+00	1.028312e+00	-1.028312e+00	-1.028312e+00
1.485095134703442e-01	9.351320e-02	1.093513e+00	6.486946e-02	1.028556e+00	1.028556e+00	-1.028556e+00	-1.028556e+00
1.494860759703442e-01	3.228519e-02	1.032285e+00	3.666599e-03	1.028588e+00	1.028588e+00	-1.028588e+00	-1.028588e+00
1.514392009703442e-01	-9.030447e-02	9.096955e-01	-1.186933e-01	1.028474e+00	1.028474e+00	-1.028474e+00	-1.028474e+00
1.533923259703442e-01	-2.115359e-01	7.884641e-01	-2.394585e-01	1.028122e+00	1.028122e+00	-1.028122e+00	-1.028122e+00
1.553454509703442e-01	-3.295856e-01	6.704144e-01	-3.568124e-01	1.027537e+00	1.027537e+00	-1.027537e+00	-1.027537e+00
1.572985759703442e-01	-4.426780e-01	5.573220e-01	-4.689892e-01	1.026728e+00	1.026728e+00	-1.026728e+00	-1.026728e+00
1.592517009703442e-01	-5.491121e-01	4.508879e-01	-5.743014e-01	1.025706e+00	1.025706e+00	-1.025706e+00	-1.025706e+00
1.602282634703442e-01	-5.993275e-01	4.006725e-01	-6.238834e-01	1.025120e+00	1.025120e+00	-1.025120e+00	-1.025120e+00
1.612048259703442e-01	-6.472871e-01	3.527129e-01	-6.711646e-01	1.024487e+00	1.024487e+00	-1.024487e+00	-1.024487e+00
1.621813884703442e-01	-6.928105e-01	3.071895e-01	-7.159668e-01	1.023808e+00	1.023808e+00	-1.023808e+00	-1.023808e+00
1.631579509703442e-01	-7.357263e-01	2.642737e-01	-7.581215e-01	1.023088e+00	1.023088e+00	-1.023088e+00	-1.023088e+00
1.641345134703442e-01	-7.758730e-01	2.241270e-01	-7.974699e-01	1.022327e+00	1.022327e+00	-1.022327e+00	-1.022327e+00
1.651110759703442e-01	-8.130995e-01	1.869005e-01	-8.338637e-01	1.021529e+00	1.021529e+00	-1.021529e+00	-1.021529e+00
1.660876384703442e-01	-8.472657e-01	1.527344e-01	-8.671662e-01	1.020698e+00	1.020698e+00	-1.020698e+00	-1.020698e+00
1.670642009703442e-01	-8.782429e-01	1.217571e-01	-8.972517e-01	1.019835e+00	1.019835e+00	-1.019835e+00	-1.019835e+00
1.680407634703442e-01	-9.059146e-01	9.408540e-02	-9.240071e-01	1.018945e+00	1.018945e+00	-1.018945e+00	-1.018945e+00
1.690173259703442e-01	-9.301767e-01	6.982332e-02	-9.473317e-01	1.018030e+00	1.018030e+00	-1.018030e+00	-1.018030e+00
1.699938884703442e-01	-9.509378e-01	4.906221e-02	-9.671374e-01	1.017094e+00	1.017094e+00	-1.017094e+00	-1.017094e+00
1.709704509703442e-01	-9.681197e-01	3.188023e-02	-9.833499e-01	1.016141e+00	1.016141e+00	-1.016141e+00	-1.016141e+00
1.719470134703442e-01	-9.816580e-01	1.834203e-02	-9.959079e-01	1.015174e+00	1.015174e+00	-1.015174e+00	-1.015174e+00
1.729235759703442e-01	-9.915015e-01	8.498567e-03	-1.004764e+00	1.014196e+00	1.014196e+00	-1.014196e+00	-1.014196e+00
1.739001384703442e-01	-9.976131e-01	2.386893e-03	-1.009885e+00	1.013211e+00	1.013211e+00	-1.013211e+00	-1.013211e+00
1.748767009703442e-01	-9.999700e-01	3.000868e-05	-1.011252e+00	1.012223e+00	1.012223e+00	-1.012223e+00	-1.012223e+00
1.758532634703442e-01	-9.985632e-01	1.436786e-03	-1.008859e+00	1.011236e+00	1.011236e+00	-1.011236e+00	-1.011236e+00
1.768298259703442e-01	-9.933981e-01	6.601929e-03	-1.002716e+00	1.010253e+00	1.010253e+00	-1.010253e+00	-1.010253e+00
1.778063884703442e-01	-9.844940e-01	1.550600e-02	-9.928448e-01	1.009277e+00	1.009277e+00	-1.009277e+00	-1.009277e+00
1.787829509703442e-01	-9.718845e-01	2.811548e-02	-9.792833e-01	1.008313e+00	1.008313e+00	-1.008313e+00	-1.008313e+00
1.797595134703442e-01	-9.556171e-01	4.438292e-02	-9.620822e-01	1.007364e+00	1.007364e+00	-1.007364e+00	-1.007364e+00
1.807360759703442e-01	-9.357529e-01	6.424708e-02	-9.413064e-01	1.006434e+00	1.006434e+00	-1.006434e+00	-1.006434e+00
1.817126384703442e-01	-9.123668e-01	8.763321e-02	-9.170339e-01	1.005526e+00	1.005526e+00	-1.005526e+00	-1.005526e+00
1.826892009703442e-01	-8.855467e-01	1.144533e-01	-8.893560e-01	1.004643e+00	1.004643e+00	-1.004643e+00	-1.004643e+00
1.836657634703442e-01	-8.553936e-01	1.446063e-01	-8.583770e-01	1.003788e+00	1.003788e+00	-1.003788e+00	-1.003788e+00
1.846423259703442e-01	-8.220211e-01	1.779789e-01	-8.242133e-01	1.002966e+00	1.002966e+00	-1.002966e+00	-1.002966e+00
1.856188884703442e-01	-7.855546e-01	2.144454e-01	-7.869934e-01	1.002178e+00	1.002178e+00	-1.002178e+00	-1.002178e+00
1.865954509703442e-01	-7.461315e-01	2.538685e-01	-7.468574e-01	1.001428e+00	1.001428e+00	-1.001428e+00	-1.001428e+00
1.875720134703442e-01	-7.039001e-01	2.960999e-01	-7.039564e-01	1.000719e+00	1.000719e+00	-1.000719e+00	-1.000719e+00
1.885485759703442e-01	-6.590194e-01	3.409806e-01	-6.584517e-01	1.000052e+00	1.000052e+00	-1.000052e+00	-1.000052e+00
1.895251384703442e-01	-6.116582e-01	3.883418e-01	-6.105145e-01	9.994318e-01	9.994318e-01	-9.994318e-01	-9.994318e-01
1.914782634703442e-01	-5.102165e-01	4.897835e-01	-5.080729e-01	9.983365e-01	9.983365e-01	-9.983365e-01	-9.983365e-01
1.934313884703442e-01	-4.011006e-01	5.988994e-01	-3.981720e-01	9.974487e-01	9.974487e-01	-9.974487e-01	-9.974487e-01
1.953845134703442e-01	-2.859518e-01	7.140482e-01	-2.824643e-01	9.967815e-01	9.967815e-01	-9.967815e-01	-9.967815e-01
1.973376384703442e-01	-1.665020e-01	8.334979e-01	-1.626898e-01	9.963444e-01	9.963444e-01	-9.963444e-01	-9.963444e-01
1.992907634703442e-01	-4.454790e-02	9.554521e-01	-4.064975e-02	9.961438e-01	9.961438e-01	-9.961438e-01	-9.961438e-01
2.012438884703442e-01	7.807627e-02	1.078076e+00	8.182072e-02	9.961821e-01	9.961821e-01	-9.961821e-01	-9.961821e-01
2.031970134703442e-01	1.995261e-01	1.199526e+00	2.028799e-01	9.964584e-01	9.964584e-01	-9.964584e-01	-9.964584e-01
2.051501384703442e-01	3.179749e-01	1.317975e+00	3.207074e-01	9.969683e-01	9.969683e-01	-9.969683e-01	-9.969683e-01
2.071032634703442e-01	4.316410e-01	1.431641e+00	4.335312e-01	9.977037e-01	9.977037e-01	-9.977037e-01	-9.977037e-01
2.090563884703442e-01	5.388149e-01	1.538815e+00	5.396549e-01	9.986530e-01	9.986530e-01	-9.986530e-01	-9.986530e-01
2.110095134703442e-01	6.378844e-01	1.637884e+00	6.374825e-01	9.998017e-01	9.998017e-01	-9.998017e-01	-9.998017e-01
2.129626384703442e-01	7.273597e-01	1.727360e+00	7.255431e-01	1.001132e+00	1.001132e+00	-1.001132e+00	-1.001132e+00
2.149157634703442e-01	8.058947e-01	1.805895e+00	8.025125e-01	1.002624e+00	1.002624e+00	-1.002624e+00	-1.002624e+00
2.168688884703442e-01	8.723083e-01	1.872308e+00	8.672335e-01	1.004254e+00	1.004254e+00	-1.004254e+00	-1.004254e+00
2.188220134703442e-01	9.256016e-01	1.925602e+00	9.187328e-01	1.005998e+00	1.005998e+00	-1.005998e+00	-1.005998e+00
2.207751384703442e-01	9.649730e-01	1.964973e+00	9.562364e-01	1.007829e+00	1.007829e+00	-1.007829e+00	-1.007829e+00
2.227282634703442e-01	9.898303e-01	1.989830e+00	9.791804e-01	1.009719e+00	1.009719e+00	-1.009719e+00	-1.009719e+00
2.246813884703442e-01	9.997996e-01	1.999800e+00	9.872202e-01	1.011639e+00	1.011639e+00	-1.011639e+00	-1.011639e+00
2.266345134703442e-01	9.947310e-01	1.994731e+00	9.802351e-01	1.013560e+00	1.013560e+00	-1.013560e+00	-1.013560e+00
2.285876384703442e-01	9.747007e-01	1.974701e+00	9.583308e-01	1.015453e+00	1.015453e+00	-1.015453e+00	-1.015453e+00
2.305407634703442e-01	9.400101e-01	1.940010e+00	9.218369e-01	1.017289e+00	1.017289e+00	-1.017289e+00	-1.017289e+00
2.324938884703442e-01	8.911808e-01	1.891181e+00	8.713027e-01	1.019040e+00	1.019040e+00	-1.019040e+00	-1.019040e+00
2.344470134703442e-01	8.289473e-01	1.828947e+00	8.074888e-01	1.020679e+00	1.020679e+00	-1.020679e+00	-1.020679e+00
2.364001384703442e-01	7.542456e-01	1.754246e+00	7.313552e-01	1.022181e+00	1.022181e+00	-1.022181e+00	-1.022181e+00
2.383532634703442e-01	6.681995e-01	1.668200e+00	6.440475e-01	1.023523e+00	1.023523e+00	-1.023523e+00	-1.023523e+00
2.403063884703442e-01	5.721030e-01	1.572103e+00	5.468793e-01	1.024685e+00	1.024685e+00	-1.024685e+00	-1.024685e+00
2.422595134703442e-01	4.674015e-01	1.467402e+00	4.413123e-01	1.025649e+00	1.025649e+00	-1.025649e+00	-1.025649e+00
2.442126384703442e-01	3.556698e-01	1.355670e+00	3.289349e-01	1.026400e+00	1.026400e+00	-1.026400e+00	-1.026400e+00
2.461657634703442e-01	2.385886e-01	1.238589e+00	2.114376e-01	1.026927e+00	1.026927e+00	-1.026927e+00	-1.026927e+00
2.481188884703442e-01	1.179187e-01	1.117919e+00	9.058807e-02	1.027220e+00	1.027220e+00	-1.027220e+00	-1.027220e+00
2.500720134703442e-01	-4.524725e-03	9.954753e-01	-3.179565e-02	1.027275e+00	1.027275e+00	-1.027275e+00	-1.027275e+00
2.520251384703442e-01	-1.269001e-01	8.730999e-01	-1.538724e-01	1.027092e+00	1.027092e+00	-1.027092e+00	-1.027092e+00
2.539782634703442e-01	-2.473668e-01	7.526332e-01	-2.738057e-01	1.026672e+00	1.026672e+00	-1.026672e+00	-1.026672e+00
2.559313884703442e-01	-3.641129e-01	6.358871e-01	-3.897913e-01	1.026021e+00	1.026021e+00	-1.026021e+00	-1.026021e+00
2.578845134703442e-01	-4.753824e-01	5.246176e-01	-5.000843e-01	1.025149e+00	1.025149e+00	-1.025149e+00	-1.025149e+00
2.598376384703442e-01	-5.795016e-01	4.204984e-01	-6.030253e-01	1.024069e+00	1.024069e+00	-1.024069e+00	-1.024069e+00
