time	V(n002)	V(n001)	V(n003)	I(C1)	I(R1)	I(V2)	I(V1)
0.000000000000000e+00	0.000000e+00	1.000000e+00	1.000000e+00	1.000000e-12	1.000089e-12	-1.000089e-12	-1.000089e-12
9.999999717180685e-10	6.283185e-08	1.000000e+00	1.000000e+00	8.940722e-08	6.283285e-08	-6.283285e-08	-6.283285e-08
3.999999886872274e-09	2.513274e-07	1.000000e+00	1.000000e+00	1.788139e-07	2.513284e-07	-2.513284e-07	-2.513284e-07
7.999999773744548e-09	5.026548e-07	1.000000e+00	1.000000e+00	4.470348e-07	5.026558e-07	-5.026558e-07	-5.026558e-07
1.599999954748910e-08	1.005310e-06	1.000001e+00	1.000000e+00	9.983778e-07	1.005311e-06	-1.005311e-06	-1.005311e-06
4.288281386202188e-04	2.697914e-02	1.026979e+00	1.000009e+00	2.695450e-02	2.695450e-02	-2.695450e-02	-2.695450e-02
8.576402772408901e-04	5.389243e-02	1.053892e+00	1.000030e+00	5.382886e-02	5.382885e-02	-5.382885e-02	-5.382885e-02
1.286452415861561e-03	8.074088e-02	1.080741e+00	1.000061e+00	8.062406e-02	8.062405e-02	-8.062405e-02	-8.062405e-02
1.715264554482233e-03	1.075245e-01	1.107524e+00	1.000104e+00	1.073401e-01	1.073401e-01	-1.073401e-01	-1.073401e-01
2.144076693102904e-03	1.342433e-01	1.134243e+00	1.000157e+00	1.339770e-01	1.339770e-01	-1.339770e-01	-1.339770e-01
2.572888831723575e-03	1.608972e-01	1.160897e+00	1.000221e+00	1.605348e-01	1.605348e-01	-1.605348e-01	-1.605348e-01
3.001700970344245e-03	1.874863e-01	1.187486e+00	1.000296e+00	1.870134e-01	1.870134e-01	-1.870134e-01	-1.870134e-01
4.954825970344245e-03	3.063163e-01	1.306316e+00	1.000778e+00	3.052503e-01	3.052503e-01	-3.052503e-01	-3.052503e-01
6.907950970344245e-03	4.205390e-01	1.420539e+00	1.001485e+00	4.186580e-01	4.186580e-01	-4.186580e-01	-4.186580e-01
8.861075970344245e-03	5.284365e-01	1.528436e+00	1.002408e+00	5.255309e-01	5.255309e-01	-5.255309e-01	-5.255309e-01
1.081420097034425e-02	6.283857e-01	1.628386e+00	1.003532e+00	6.242622e-01	6.242622e-01	-6.242622e-01	-6.242622e-01
1.276732597034425e-02	7.188835e-01	1.718884e+00	1.004840e+00	7.133672e-01	7.133672e-01	-7.133672e-01	-7.133672e-01
1.472045097034425e-02	7.985685e-01	1.798568e+00	1.006311e+00	7.915063e-01	7.915063e-01	-7.915063e-01	-7.915063e-01
1.667357597034425e-02	8.662424e-01	1.866242e+00	1.007923e+00	8.575046e-01	8.575046e-01	-8.575046e-01	-8.575046e-01
1.862670097034425e-02	9.208872e-01	1.920887e+00	1.009651e+00	9.103698e-01	9.103698e-01	-9.103698e-01	-9.103698e-01
2.057982597034425e-02	9.616809e-01	1.961681e+00	1.011469e+00	9.493074e-01	9.493074e-01	-9.493074e-01	-9.493074e-01
2.253295097034425e-02	9.880101e-01	1.988010e+00	1.013348e+00	9.737321e-01	9.737321e-01	-9.737321e-01	-9.737321e-01
2.448607597034425e-02	9.994787e-01	1.999479e+00	1.015261e+00	9.832768e-01	9.832768e-01	-9.832768e-01	-9.832768e-01
2.643920097034425e-02	9.959142e-01	1.995914e+00	1.017178e+00	9.777988e-01	9.777988e-01	-9.777988e-01	-9.777988e-01
2.839232597034425e-02	9.773703e-01	1.977370e+00	1.019070e+00	9.573807e-01	9.573807e-01	-9.573807e-01	-9.573807e-01
3.034545097034425e-02	9.441257e-01	1.944126e+00	1.020907e+00	9.223300e-01	9.223300e-01	-9.223300e-01	-9.223300e-01
3.229857597034425e-02	8.966807e-01	1.896681e+00	1.022662e+00	8.731744e-01	8.731744e-01	-8.731744e-01	-8.731744e-01
3.425170097034425e-02	8.357487e-01	1.835749e+00	1.024308e+00	8.106539e-01	8.106539e-01	-8.106539e-01	-8.106539e-01
3.620482597034425e-02	7.622463e-01	1.762246e+00	1.025820e+00	7.357091e-01	7.357091e-01	-7.357091e-01	-7.357091e-01
3.815795097034425e-02	6.772790e-01	1.677279e+00	1.027174e+00	6.494677e-01	6.494677e-01	-6.494677e-01	-6.494677e-01
4.011107597034425e-02	5.821248e-01	1.582125e+00	1.028350e+00	5.532274e-01	5.532274e-01	-5.532274e-01	-5.532274e-01
4.206420097034425e-02	4.782149e-01	1.478215e+00	1.029329e+00	4.484361e-01	4.484361e-01	-4.484361e-01	-4.484361e-01
4.401732597034425e-02	3.671122e-01	1.367112e+00	1.030096e+00	3.366705e-01	3.366705e-01	-3.366705e-01	-3.366705e-01
4.597045097034425e-02	2.504877e-01	1.250488e+00	1.030640e+00	2.196120e-01	2.196120e-01	-2.196120e-01	-2.196120e-01
4.792357597034425e-02	1.300958e-01	1.130096e+00	1.030951e+00	9.902184e-02	9.902184e-02	-9.902184e-02	-9.902184e-02
4.890013847034425e-02	6.905135e-02	1.069051e+00	1.031018e+00	3.796797e-02	3.796797e-02	-3.796797e-02	-3.796797e-02
5.085326347034425e-02	-5.358645e-02	9.464136e-01	1.030973e+00	-8.450897e-02	-8.450897e-02	8.450897e-02	8.450897e-02
5.280638847034425e-02	-1.754182e-01	8.245817e-01	1.030689e+00	-2.059422e-01	-2.059422e-01	2.059422e-01	2.059422e-01
5.475951347034425e-02	-2.946116e-01	7.053884e-01	1.030171e+00	-3.245050e-01	-3.245050e-01	3.245050e-01	3.245050e-01
5.671263847034425e-02	-4.093737e-01	5.906263e-01	1.029425e+00	-4.384134e-01	-4.384134e-01	4.384134e-01	4.384134e-01
5.866576347034425e-02	-5.179785e-01	4.820215e-01	1.028463e+00	-5.459538e-01	-5.459538e-01	5.459538e-01	5.459538e-01
6.061888847034425e-02	-6.187924e-01	3.812076e-01	1.027298e+00	-6.455082e-01	-6.455082e-01	6.455082e-01	6.455082e-01
6.159545097034425e-02	-6.657986e-01	3.342014e-01	1.026645e+00	-6.918173e-01	-6.918173e-01	6.918173e-01	6.918173e-01
6.257201347034425e-02	-7.102990e-01	2.897010e-01	1.025948e+00	-7.355788e-01	-7.355788e-01	7.355788e-01	7.355788e-01
6.354857597034425e-02	-7.521260e-01	2.478740e-01	1.025210e+00	-7.766280e-01	-7.766280e-01	7.766280e-01	7.766280e-01
6.452513847034425e-02	-7.911221e-01	2.088779e-01	1.024433e+00	-8.148104e-01	-8.148104e-01	8.148104e-01	8.148104e-01
6.550170097034425e-02	-8.271406e-01	1.728594e-01	1.023620e+00	-8.499821e-01	-8.499821e-01	8.499821e-01	8.499821e-01
6.647826347034425e-02	-8.600460e-01	1.399540e-01	1.022774e+00	-8.820108e-01	-8.820108e-01	8.820108e-01	8.820108e-01
6.745482597034425e-02	-8.897144e-01	1.102857e-01	1.021899e+00	-9.107759e-01	-9.107759e-01	9.107759e-01	9.107759e-01
6.843138847034425e-02	-9.160340e-01	8.396599e-02	1.020997e+00	-9.361689e-01	-9.361689e-01	9.361689e-01	9.361689e-01
6.940795097034425e-02	-9.389059e-01	6.109409e-02	1.020072e+00	-9.580944e-01	-9.580944e-01	9.580944e-01	9.580944e-01
7.038451347034425e-02	-9.582440e-01	4.175600e-02	1.019127e+00	-9.764697e-01	-9.764697e-01	9.764697e-01	9.764697e-01
7.136107597034425e-02	-9.739755e-01	2.602453e-02	1.018167e+00	-9.912256e-01	-9.912256e-01	9.912256e-01	9.912256e-01
7.233763847034425e-02	-9.860411e-01	1.395889e-02	1.017193e+00	-1.002306e+00	-1.002306e+00	1.002306e+00	1.002306e+00
7.331420097034425e-02	-9.943955e-01	5.604479e-03	1.016211e+00	-1.009671e+00	-1.009671e+00	1.009671e+00	1.009671e+00
7.429076347034425e-02	-9.990072e-01	9.927504e-04	1.015223e+00	-1.013290e+00	-1.013290e+00	1.013290e+00	1.013290e+00
7.526732597034425e-02	-9.998589e-01	1.410593e-04	1.014233e+00	-1.013152e+00	-1.013152e+00	1.013152e+00	1.013152e+00
7.624388847034425e-02	-9.969474e-01	3.052612e-03	1.013246e+00	-1.009255e+00	-1.009255e+00	1.009255e+00	1.009255e+00
7.722045097034425e-02	-9.902835e-01	9.716448e-03	1.012264e+00	-1.001616e+00	-1.001616e+00	1.001616e+00	1.001616e+00
7.819701347034425e-02	-9.798925e-01	2.010749e-02	1.011292e+00	-9.902620e-01	-9.902620e-01	9.902620e-01	9.902620e-01
7.917357597034425e-02	-9.658134e-01	3.418662e-02	1.010332e+00	-9.752364e-01	-9.752364e-01	9.752364e-01	9.752364e-01
8.015013847034425e-02	-9.480991e-01	5.190086e-02	1.009389e+00	-9.565955e-01	-9.565955e-01	9.565955e-01	9.565955e-01
8.112670097034425e-02	-9.268165e-01	7.318353e-02	1.008465e+00	-9.344096e-01	-9.344096e-01	9.344096e-01	9.344096e-01
8.210326347034425e-02	-9.020455e-01	9.795453e-02	1.007565e+00	-9.087619e-01	-9.087619e-01	9.087619e-01	9.087619e-01
8.307982597034425e-02	-8.738794e-01	1.261206e-01	1.006692e+00	-8.797490e-01	-8.797490e-01	8.797490e-01	8.797490e-01
8.405638847034425e-02	-8.424242e-01	1.575758e-01	1.005849e+00	-8.474801e-01	-8.474801e-01	8.474801e-01	8.474801e-01
8.503295097034425e-02	-8.077983e-01	1.922017e-01	1.005038e+00	-8.120764e-01	-8.120764e-01	8.120764e-01	8.120764e-01
8.600951347034425e-02	-7.701321e-01	2.298679e-01	1.004264e+00	-7.736713e-01	-7.736713e-01	7.736713e-01	7.736713e-01
8.698607597034425e-02	-7.295672e-01	2.704328e-01	1.003529e+00	-7.324092e-01	-7.324092e-01	7.324092e-01	7.324092e-01
8.796263847034425e-02	-6.862565e-01	3.137435e-01	1.002835e+00	-6.884454e-01	-6.884454e-01	6.884454e-01	6.884454e-01
8.893920097034425e-02	-6.403628e-01	3.596372e-01	1.002185e+00	-6.419454e-01	-6.419454e-01	6.419454e-01	6.419454e-01
8.991576347034425e-02	-5.920589e-01	4.079411e-01	1.001582e+00	-5.930839e-01	-5.930839e-01	5.930839e-01	5.930839e-01
9.186888847034425e-02	-4.889562e-01	5.110437e-01	1.000524e+00	-4.890205e-01	-4.890205e-01	4.890205e-01	4.890205e-01
9.382201347034425e-02	-3.784992e-01	6.215008e-01	9.996771e-01	-3.778201e-01	-3.778201e-01	3.778201e-01	3.778201e-01
9.577513847034425e-02	-2.623492e-01	7.376508e-01	9.990525e-01	-2.611549e-01	-2.611549e-01	2.611549e-01	2.611549e-01
9.772826347034425e-02	-1.422532e-01	8.577468e-01	9.986597e-01	-1.407790e-01	-1.407790e-01	1.407790e-01	1.407790e-01
9.968138847034425e-02	-2.001762e-02	9.799824e-01	9.985040e-01	-1.850277e-02	-1.850277e-02	1.850277e-02	1.850277e-02
1.006579509703442e-01	4.132850e-02	1.041329e+00	9.985158e-01	4.277378e-02	4.277378e-02	-4.277378e-02	-4.277378e-02
1.026110759703442e-01	1.633238e-01	1.163324e+00	9.987184e-01	1.644517e-01	1.644517e-01	-1.644517e-01	-1.644517e-01
1.045642009703442e-01	2.828625e-01	1.282863e+00	9.991562e-01	2.834401e-01	2.834401e-01	-2.834401e-01	-2.834401e-01
1.065173259703442e-01	3.981467e-01	1.398147e+00	9.998223e-01	3.979498e-01	3.979498e-01	-3.979498e-01	-3.979498e-01
1.084704509703442e-01	5.074425e-01	1.507442e+00	1.000706e+00	5.062588e-01	5.062588e-01	-5.062588e-01	-5.062588e-01
1.104235759703442e-01	6.091058e-01	1.609106e+00	1.001794e+00	6.067384e-01	6.067384e-01	-6.067384e-01	-6.067384e-01
1.123767009703442e-01	7.016076e-01	1.701608e+00	1.003069e+00	6.978780e-01	6.978780e-01	-6.978780e-01	-6.978780e-01
1.143298259703442e-01	7.835566e-01	1.783557e+00	1.004512e+00	7.783068e-01	7.783068e-01	-7.783068e-01	-7.783068e-01
1.162829509703442e-01	8.537201e-01	1.853720e+00	1.006101e+00	8.468158e-01	8.468158e-01	-8.468158e-01	-8.468158e-01
1.182360759703442e-01	9.110429e-01	1.911043e+00	1.007811e+00	9.023749e-01	9.023749e-01	-9.023749e-01	-9.023749e-01
1.201892009703442e-01	9.546628e-01	1.954663e+00	1.009616e+00	9.441487e-01	9.441487e-01	-9.441487e-01	-9.441487e-01
1.221423259703442e-01	9.839236e-01	1.983924e+00	1.011488e+00	9.715095e-01	9.715095e-01	-9.715095e-01	-9.715095e-01
1.240954509703442e-01	9.983854e-01	1.998385e+00	1.013400e+00	9.840461e-01	9.840461e-01	-9.840461e-01	-9.840461e-01
1.260485759703442e-01	9.978305e-01	1.997830e+00	1.015321e+00	9.815702e-01	9.815702e-01	-9.815702e-01	-9.815702e-01
1.280017009703442e-01	9.822672e-01	1.982267e+00	1.017223e+00	9.641198e-01	9.641198e-01	-9.641198e-01	-9.641198e-01
1.299548259703442e-01	9.519298e-01	1.951930e+00	1.019077e+00	9.319575e-01	9.319575e-01	-9.319575e-01	-9.319575e-01
1.319079509703442e-01	9.072744e-01	1.907274e+00	1.020853e+00	8.855675e-01	8.855675e-01	-8.855675e-01	-8.855675e-01
1.338610759703442e-01	8.489729e-01	1.848973e+00	1.022526e+00	8.256481e-01	8.256481e-01	-8.256481e-01	-8.256481e-01
1.358142009703442e-01	7.779019e-01	1.777902e+00	1.024069e+00	7.531008e-01	7.531008e-01	-7.531008e-01	-7.531008e-01
1.377673259703442e-01	6.951306e-01	1.695131e+00	1.025459e+00	6.690173e-01	6.690173e-01	-6.690173e-01	-6.690173e-01
1.397204509703442e-01	6.019039e-01	1.601904e+00	1.026675e+00	5.746626e-01	5.746626e-01	-5.746626e-01	-5.746626e-01
1.416735759703442e-01	4.996240e-01	1.499624e+00	1.027698e+00	4.714563e-01	4.714563e-01	-4.714563e-01	-4.714563e-01
1.436267009703442e-01	3.898293e-01	1.389829e+00	1.028511e+00	3.609512e-01	3.609512e-01	-3.609512e-01	-3.609512e-01
1.455798259703442e-01	2.741711e-01	1.274171e+00	1.029103e+00	2.448098e-01	2.448098e-01	-2.448098e-01	-2.448098e-01
1.475329509703442e-01	1.543892e-01	1.154389e+00	1.029465e+00	1.247793e-01	1.247793e-01	-1.247793e-01	-1.247793e-01
1.494860759703442e-01	3.228519e-02	1.032285e+00	1.029589e+00	2.665543e-03	2.665543e-03	-2.665543e-03	-2.665543e-03
1.514392009703442e-01	-9.030447e-02	9.096955e-01	1.029475e+00	-1.196944e-01	-1.196944e-01	1.196944e-01	1.196944e-01
1.533923259703442e-01	-2.115359e-01	7.884641e-01	1.029123e+00	-2.404597e-01	-2.404597e-01	2.404597e-01	2.404597e-01
1.553454509703442e-01	-3.295856e-01	6.704144e-01	1.028538e+00	-3.578136e-01	-3.578136e-01	3.578136e-01	3.578136e-01
1.572985759703442e-01	-4.426780e-01	5.573220e-01	1.027729e+00	-4.699904e-01	-4.699904e-01	4.699904e-01	4.699904e-01
1.592517009703442e-01	-5.491121e-01	4.508879e-01	1.026707e+00	-5.753027e-01	-5.753027e-01	5.753027e-01	5.753027e-01
1.602282634703442e-01	-5.993275e-01	4.006725e-01	1.026121e+00	-6.248848e-01	-6.248848e-01	6.248848e-01	6.248848e-01
1.612048259703442e-01	-6.472871e-01	3.527129e-01	1.025488e+00	-6.721659e-01	-6.721659e-01	6.721659e-01	6.721659e-01
1.621813884703442e-01	-6.928105e-01	3.071895e-01	1.024810e+00	-7.169682e-01	-7.169682e-01	7.169682e-01	7.169682e-01
1.631579509703442e-01	-7.357263e-01	2.642737e-01	1.024089e+00	-7.591228e-01	-7.591228e-01	7.591228e-01	7.591228e-01
1.641345134703442e-01	-7.758730e-01	2.241270e-01	1.023328e+00	-7.984712e-01	-7.984712e-01	7.984712e-01	7.984712e-01
1.651110759703442e-01	-8.130995e-01	1.869005e-01	1.022531e+00	-8.348652e-01	-8.348652e-01	8.348652e-01	8.348652e-01
1.660876384703442e-01	-8.472657e-01	1.527344e-01	1.021699e+00	-8.681676e-01	-8.681676e-01	8.681676e-01	8.681676e-01
1.670642009703442e-01	-8.782429e-01	1.217571e-01	1.020837e+00	-8.982532e-01	-8.982532e-01	8.982532e-01	8.982532e-01
1.680407634703442e-01	-9.059146e-01	9.408540e-02	1.019946e+00	-9.250087e-01	-9.250087e-01	9.250087e-01	9.250087e-01
1.690173259703442e-01	-9.301767e-01	6.982332e-02	1.019032e+00	-9.483331e-01	-9.483331e-01	9.483331e-01	9.483331e-01
1.699938884703442e-01	-9.509378e-01	4.906221e-02	1.018096e+00	-9.681389e-01	-9.681389e-01	9.681389e-01	9.681389e-01
1.709704509703442e-01	-9.681197e-01	3.188023e-02	1.017143e+00	-9.843514e-01	-9.843514e-01	9.843514e-01	9.843514e-01
1.719470134703442e-01	-9.816580e-01	1.834203e-02	1.016175e+00	-9.969094e-01	-9.969094e-01	9.969094e-01	9.969094e-01
1.729235759703442e-01	-9.915015e-01	8.498567e-03	1.015197e+00	-1.005766e+00	-1.005766e+00	1.005766e+00	1.005766e+00
1.739001384703442e-01	-9.976131e-01	2.386893e-03	1.014213e+00	-1.010887e+00	-1.010887e+00	1.010887e+00	1.010887e+00
1.748767009703442e-01	-9.999700e-01	3.000868e-05	1.013225e+00	-1.012254e+00	-1.012254e+00	1.012254e+00	1.012254e+00
1.758532634703442e-01	-9.985632e-01	1.436786e-03	1.012237e+00	-1.009861e+00	-1.009861e+00	1.009861e+00	1.009861e+00
1.768298259703442e-01	-9.933981e-01	6.601929e-03	1.011254e+00	-1.003718e+00	-1.003718e+00	1.003718e+00	1.003718e+00
1.778063884703442e-01	-9.844940e-01	1.550600e-02	1.010279e+00	-9.938465e-01	-9.938465e-01	9.938465e-01	9.938465e-01
1.787829509703442e-01	-9.718845e-01	2.811548e-02	1.009315e+00	-9.802849e-01	-9.802849e-01	9.802849e-01	9.802849e-01
1.797595134703442e-01	-9.556171e-01	4.438292e-02	1.008366e+00	-9.630839e-01	-9.630839e-01	9.630839e-01	9.630839e-01
1.807360759703442e-01	-9.357529e-01	6.424708e-02	1.007436e+00	-9.423080e-01	-9.423080e-01	9.423080e-01	9.423080e-01
1.817126384703442e-01	-9.123668e-01	8.763321e-02	1.006527e+00	-9.180355e-01	-9.180355e-01	9.180355e-01	9.180355e-01
1.826892009703442e-01	-8.855467e-01	1.144533e-01	1.005644e+00	-8.903577e-01	-8.903577e-01	8.903577e-01	8.903577e-01
1.836657634703442e-01	-8.553936e-01	1.446063e-01	1.004790e+00	-8.593786e-01	-8.593786e-01	8.593786e-01	8.593786e-01
1.846423259703442e-01	-8.220211e-01	1.779789e-01	1.003967e+00	-8.252149e-01	-8.252149e-01	8.252149e-01	8.252149e-01
1.856188884703442e-01	-7.855546e-01	2.144454e-01	1.003180e+00	-7.879950e-01	-7.879950e-01	7.879950e-01	7.879950e-01
1.865954509703442e-01	-7.461315e-01	2.538685e-01	1.002430e+00	-7.478591e-01	-7.478591e-01	7.478591e-01	7.478591e-01
1.875720134703442e-01	-7.039001e-01	2.960999e-01	1.001720e+00	-7.049580e-01	-7.049580e-01	7.049580e-01	7.049580e-01
1.885485759703442e-01	-6.590194e-01	3.409806e-01	1.001054e+00	-6.594533e-01	-6.594533e-01	6.594533e-01	6.594533e-01
1.895251384703442e-01	-6.116582e-01	3.883418e-01	1.000433e+00	-6.115162e-01	-6.115162e-01	6.115162e-01	6.115162e-01
1.914782634703442e-01	-5.102165e-01	4.897835e-01	9.993382e-01	-5.090746e-01	-5.090746e-01	5.090746e-01	5.090746e-01
1.934313884703442e-01	-4.011006e-01	5.988994e-01	9.984504e-01	-3.991736e-01	-3.991736e-01	3.991736e-01	3.991736e-01
1.953845134703442e-01	-2.859518e-01	7.140482e-01	9.977831e-01	-2.834659e-01	-2.834659e-01	2.834659e-01	2.834659e-01
1.973376384703442e-01	-1.665020e-01	8.334979e-01	9.973460e-01	-1.636914e-01	-1.636914e-01	1.636914e-01	1.636914e-01
1.992907634703442e-01	-4.454790e-02	9.554521e-01	9.971454e-01	-4.165136e-02	-4.165136e-02	4.165136e-02	4.165136e-02
2.002673259703442e-01	1.679580e-02	1.016796e+00	9.971346e-01	1.964536e-02	1.964536e-02	-1.964536e-02	-1.964536e-02
2.022204509703442e-01	1.390629e-01	1.139063e+00	9.972923e-01	1.416397e-01	1.416397e-01	-1.416397e-01	-1.416397e-01
2.041735759703442e-01	2.592384e-01	1.259238e+00	9.976862e-01	2.613082e-01	2.613082e-01	-2.613082e-01	-2.613082e-01
2.061267009703442e-01	3.755146e-01	1.375515e+00	9.983100e-01	3.768513e-01	3.768513e-01	-3.768513e-01	-3.768513e-01
2.080798259703442e-01	4.861428e-01	1.486143e+00	9.991540e-01	4.865314e-01	4.865314e-01	-4.865314e-01	-4.865314e-01
2.100329509703442e-01	5.894589e-01	1.589459e+00	1.000205e+00	5.886993e-01	5.886993e-01	-5.886993e-01	-5.886993e-01
2.119860759703442e-01	6.839091e-01	1.683909e+00	1.001447e+00	6.818186e-01	6.818186e-01	-6.818186e-01	-6.818186e-01
2.139392009703442e-01	7.680726e-01	1.768073e+00	1.002861e+00	7.644891e-01	7.644891e-01	-7.644891e-01	-7.644891e-01
2.158923259703442e-01	8.406836e-01	1.840684e+00	1.004425e+00	8.354679e-01	8.354679e-01	-8.354679e-01	-8.354679e-01
2.178454509703442e-01	9.006499e-01	1.900650e+00	1.006115e+00	8.936875e-01	8.936875e-01	-8.936875e-01	-8.936875e-01
2.197985759703442e-01	9.470696e-01	1.947070e+00	1.007906e+00	9.382728e-01	9.382728e-01	-9.382728e-01	-9.382728e-01
2.217517009703442e-01	9.792445e-01	1.979244e+00	1.009770e+00	9.685535e-01	9.685535e-01	-9.685535e-01	-9.685535e-01
2.237048259703442e-01	9.966906e-01	1.996691e+00	1.011678e+00	9.840745e-01	9.840745e-01	-9.840745e-01	-9.840745e-01
2.256579509703442e-01	9.991456e-01	1.999146e+00	1.013603e+00	9.846028e-01	9.846028e-01	-9.846028e-01	-9.846028e-01
2.276110759703442e-01	9.865725e-01	1.986573e+00	1.015513e+00	9.701308e-01	9.701308e-01	-9.701308e-01	-9.701308e-01
2.295642009703442e-01	9.591604e-01	1.959160e+00	1.017381e+00	9.408765e-01	9.408765e-01	-9.408765e-01	-9.408765e-01
2.315173259703442e-01	9.173217e-01	1.917322e+00	1.019178e+00	8.972805e-01	8.972805e-01	-8.972805e-01	-8.972805e-01
2.334704509703442e-01	8.616856e-01	1.861686e+00	1.020876e+00	8.399985e-01	8.399985e-01	-8.399985e-01	-8.399985e-01
2.354235759703442e-01	7.930890e-01	1.793089e+00	1.022450e+00	7.698927e-01	7.698927e-01	-7.698927e-01	-7.698927e-01
2.373767009703442e-01	7.125635e-01	1.712564e+00	1.023875e+00	6.880179e-01	6.880179e-01	-6.880179e-01	-6.880179e-01
2.393298259703442e-01	6.213205e-01	1.621320e+00	1.025130e+00	5.956060e-01	5.956060e-01	-5.956060e-01	-5.956060e-01
2.412829509703442e-01	5.207322e-01	1.520732e+00	1.026195e+00	4.940472e-01	4.940472e-01	-4.940472e-01	-4.940472e-01
2.432360759703442e-01	4.123116e-01	1.412312e+00	1.027054e+00	3.848695e-01	3.848695e-01	-3.848695e-01	-3.848695e-01
2.451892009703442e-01	2.976894e-01	1.297689e+00	1.027694e+00	2.697153e-01	2.697153e-01	-2.697153e-01	-2.697153e-01
2.471423259703442e-01	1.785897e-01	1.178590e+00	1.028105e+00	1.503171e-01	1.503171e-01	-1.503171e-01	-1.503171e-01
2.490954509703442e-01	5.680390e-02	1.056804e+00	1.028279e+00	2.847104e-02	2.847104e-02	-2.847104e-02	-2.847104e-02
2.510485759703442e-01	-6.583632e-02	9.341637e-01	1.028215e+00	-9.398976e-02	-9.398976e-02	9.398976e-02	9.398976e-02
2.530017009703442e-01	-1.874863e-01	8.125137e-01	1.027913e+00	-2.152230e-01	-2.152230e-01	2.152230e-01	2.152230e-01
