time	V(n003)	V(n001)	V(n002)	V(n005)	V(n004)	I(C1)	I(R3)	I(R2)	I(R1)	I(V2)	I(V1)
0.000000000000000e+00	5.000000e+00	5.000000e+00	3.333333e+00	1.666667e+00	1.666667e+00	1.666667e-12	-1.666667e+00	1.666667e+00	-1.666667e+00	-1.666667e+00	-1.666667e+00
1.265867995763464e-03	5.000000e+00	5.403238e+00	3.601912e+00	1.800956e+00	1.935245e+00	1.542706e-12	-1.800956e+00	1.800956e+00	-1.800956e+00	-1.800956e+00	-1.800956e+00
2.531735991526928e-03	5.000000e+00	5.797882e+00	3.864764e+00	1.932382e+00	2.198097e+00	1.532283e-12	-1.932382e+00	1.932382e+00	-1.932382e+00	-1.932382e+00	-1.932382e+00
3.797603987290392e-03	5.000000e+00	6.183931e+00	4.121890e+00	2.060945e+00	2.455223e+00	1.635397e-12	-2.060945e+00	2.060945e+00	-2.060945e+00	-2.060945e+00	-2.060945e+00
5.063471983053856e-03	5.000000e+00	6.561386e+00	4.373290e+00	2.186645e+00	2.706623e+00	1.852049e-12	-2.186645e+00	2.186645e+00	-2.186645e+00	-2.186645e+00	-2.186645e+00
6.329339978817320e-03	5.000000e+00	6.930246e+00	4.618963e+00	2.309482e+00	2.952296e+00	2.182239e-12	-2.309482e+00	2.309482e+00	-2.309482e+00	-2.309482e+00	-2.309482e+00
7.595207974580784e-03	5.000000e+00	7.290511e+00	4.858910e+00	2.429455e+00	3.192243e+00	2.625966e-12	-2.429455e+00	2.429455e+00	-2.429455e+00	-2.429455e+00	-2.429455e+00
8.861075970344245e-03	5.000000e+00	7.642182e+00	5.093131e+00	2.546565e+00	3.426464e+00	3.183231e-12	-2.546565e+00	2.546565e+00	-2.546565e+00	-2.546565e+00	-2.546565e+00
1.179076347034425e-02	5.000000e+00	8.374523e+00	5.580899e+00	2.790449e+00	3.914232e+00	3.410605e-12	-2.790449e+00	2.790449e+00	-2.790449e+00	-2.790449e+00	-2.790449e+00
1.472045097034425e-02	5.000000e+00	8.992843e+00	5.992723e+00	2.996362e+00	4.326057e+00	4.092726e-12	-2.996362e+00	2.996362e+00	-2.996362e+00	-2.996362e+00	-2.996362e+00
1.765013847034425e-02	5.000000e+00	9.476248e+00	6.314691e+00	3.157345e+00	4.648024e+00	3.637979e-12	-3.157345e+00	3.157345e+00	-3.157345e+00	-3.157345e+00	-3.157345e+00
2.057982597034425e-02	5.000000e+00	9.808405e+00	6.535920e+00	3.267960e+00	4.869253e+00	3.183231e-12	-3.267960e+00	3.267960e+00	-3.267960e+00	-3.267960e+00	-3.267960e+00
2.350951347034425e-02	5.000000e+00	9.978090e+00	6.648937e+00	3.324469e+00	4.982271e+00	4.092726e-12	-3.324469e+00	3.324469e+00	-3.324469e+00	-3.324469e+00	-3.324469e+00
2.546263847034425e-02	5.000000e+00	9.997888e+00	6.662123e+00	3.331062e+00	4.995457e+00	4.092726e-12	-3.331062e+00	3.331062e+00	-3.331062e+00	-3.331062e+00	-3.331062e+00
2.741576347034425e-02	5.000000e+00	9.942513e+00	6.625241e+00	3.312621e+00	4.958574e+00	4.092726e-12	-3.312621e+00	3.312621e+00	-3.312621e+00	-3.312621e+00	-3.312621e+00
3.034545097034425e-02	5.000000e+00	9.720629e+00	6.477458e+00	3.238729e+00	4.810791e+00	3.183231e-12	-3.238729e+00	3.238729e+00	-3.238729e+00	-3.238729e+00	-3.238729e+00
3.327513847034425e-02	5.000000e+00	9.339239e+00	6.223437e+00	3.111719e+00	4.556771e+00	3.637979e-12	-3.111719e+00	3.111719e+00	-3.111719e+00	-3.111719e+00	-3.111719e+00
3.620482597034425e-02	5.000000e+00	8.811232e+00	5.871763e+00	2.935882e+00	4.205097e+00	3.183231e-12	-2.935882e+00	2.935882e+00	-2.935882e+00	-2.935882e+00	-2.935882e+00
3.913451347034425e-02	5.000000e+00	8.154446e+00	5.434319e+00	2.717159e+00	3.767652e+00	3.637979e-12	-2.717159e+00	2.717159e+00	-2.717159e+00	-2.717159e+00	-2.717159e+00
4.206420097034425e-02	5.000000e+00	7.391074e+00	4.925883e+00	2.462942e+00	3.259216e+00	2.273737e-12	-2.462942e+00	2.462942e+00	-2.462942e+00	-2.462942e+00	-2.462942e+00
4.499388847034425e-02	5.000000e+00	6.546911e+00	4.363637e+00	2.181818e+00	2.696970e+00	1.818989e-12	-2.181818e+00	2.181818e+00	-2.181818e+00	-2.181818e+00	-2.181818e+00
4.610995989891568e-02	5.000000e+00	6.205689e+00	4.136370e+00	2.068185e+00	2.469703e+00	1.739646e-12	-2.068185e+00	2.068185e+00	-2.068185e+00	-2.068185e+00	-2.068185e+00
4.722603132748710e-02	5.000000e+00	5.862779e+00	3.907978e+00	1.953989e+00	2.241312e+00	1.643441e-12	-1.953989e+00	1.953989e+00	-1.953989e+00	-1.953989e+00	-1.953989e+00
4.834210275605853e-02	5.000000e+00	5.518181e+00	3.678462e+00	1.839231e+00	2.011796e+00	1.530374e-12	-1.839231e+00	1.839231e+00	-1.839231e+00	-1.839231e+00	-1.839231e+00
4.945817418462996e-02	5.000000e+00	5.171895e+00	3.447822e+00	1.723911e+00	1.781156e+00	1.400446e-12	-1.723911e+00	1.723911e+00	-1.723911e+00	-1.723911e+00	-1.723911e+00
5.057424561320139e-02	5.000000e+00	4.823921e+00	3.216058e+00	1.608029e+00	1.549391e+00	1.253657e-12	-1.608029e+00	1.608029e+00	-1.608029e+00	-1.608029e+00	-1.608029e+00
5.169031704177282e-02	5.000000e+00	4.474259e+00	2.983169e+00	1.491585e+00	1.316502e+00	1.090007e-12	-1.491585e+00	1.491585e+00	-1.491585e+00	-1.491585e+00	-1.491585e+00
5.280638847034425e-02	5.000000e+00	4.122909e+00	2.749156e+00	1.374578e+00	1.082489e+00	9.094947e-13	-1.374578e+00	1.374578e+00	-1.374578e+00	-1.374578e+00	-1.374578e+00
5.475951347034425e-02	5.000000e+00	3.526942e+00	2.352219e+00	1.176109e+00	6.855521e-01	2.273737e-13	-1.176109e+00	1.176109e+00	-1.176109e+00	-1.176109e+00	-1.176109e+00
5.573607597034425e-02	5.000000e+00	3.236718e+00	2.158918e+00	1.079459e+00	4.922517e-01	0.000000e+00	-1.079459e+00	1.079459e+00	-1.079459e+00	-1.079459e+00	-1.079459e+00
5.671263847034425e-02	5.000000e+00	2.953131e+00	1.970038e+00	9.850191e-01	3.033716e-01	0.000000e+00	-9.850191e-01	9.850191e-01	-9.850191e-01	-9.850191e-01	-9.850191e-01
5.768920097034425e-02	5.000000e+00	2.677248e+00	1.786289e+00	8.931447e-01	1.196226e-01	-1.136868e-13	-8.931447e-01	8.931447e-01	-8.931447e-01	-8.931447e-01	-8.931447e-01
5.866576347034425e-02	5.000000e+00	2.410108e+00	1.608363e+00	8.041815e-01	-5.830359e-02	-3.410605e-13	-8.041815e-01	8.041815e-01	-8.041815e-01	-8.041815e-01	-8.041815e-01
5.964232597034425e-02	5.000000e+00	2.152715e+00	1.436929e+00	7.184646e-01	-2.297374e-01	-4.547474e-13	-7.184646e-01	7.184646e-01	-7.184646e-01	-7.184646e-01	-7.184646e-01
6.061888847034425e-02	5.000000e+00	1.906038e+00	1.272633e+00	6.363165e-01	-3.940337e-01	-5.684342e-13	-6.363165e-01	6.363165e-01	-6.363165e-01	-6.363165e-01	-6.363165e-01
6.159545097034425e-02	5.000000e+00	1.671007e+00	1.116093e+00	5.580465e-01	-5.505739e-01	-7.958079e-13	-5.580465e-01	5.580465e-01	-5.580465e-01	-5.580465e-01	-5.580465e-01
6.257201347034425e-02	5.000000e+00	1.448505e+00	9.678978e-01	4.839489e-01	-6.987689e-01	-9.094947e-13	-4.839489e-01	4.839489e-01	-4.839489e-01	-4.839489e-01	-4.839489e-01
6.354857597034425e-02	5.000000e+00	1.239370e+00	8.286058e-01	4.143029e-01	-8.380609e-01	-9.094947e-13	-4.143029e-01	4.143029e-01	-4.143029e-01	-4.143029e-01	-4.143029e-01
6.452513847034425e-02	5.000000e+00	1.044389e+00	6.987410e-01	3.493705e-01	-9.679257e-01	-1.023182e-12	-3.493705e-01	3.493705e-01	-3.493705e-01	-3.493705e-01	-3.493705e-01
6.550170097034425e-02	5.000000e+00	8.642968e-01	5.787922e-01	2.893961e-01	-1.087874e+00	-1.250555e-12	-2.893961e-01	2.893961e-01	-2.893961e-01	-2.893961e-01	-2.893961e-01
6.647826347034425e-02	5.000000e+00	6.997700e-01	4.692109e-01	2.346054e-01	-1.197456e+00	-1.364242e-12	-2.346054e-01	2.346054e-01	-2.346054e-01	-2.346054e-01	-2.346054e-01
6.745482597034425e-02	5.000000e+00	5.514283e-01	3.704094e-01	1.852047e-01	-1.296257e+00	-1.364242e-12	-1.852047e-01	1.852047e-01	-1.852047e-01	-1.852047e-01	-1.852047e-01
6.843138847034425e-02	5.000000e+00	4.198300e-01	2.827598e-01	1.413799e-01	-1.383907e+00	-1.477929e-12	-1.413799e-01	1.413799e-01	-1.413799e-01	-1.413799e-01	-1.413799e-01
6.940795097034425e-02	5.000000e+00	3.054704e-01	2.065918e-01	1.032959e-01	-1.460075e+00	-1.705303e-12	-1.032959e-01	1.032959e-01	-1.032959e-01	-1.032959e-01	-1.032959e-01
7.038451347034425e-02	5.000000e+00	2.087800e-01	1.421922e-01	7.109609e-02	-1.524475e+00	-1.818989e-12	-7.109609e-02	7.109609e-02	-7.109609e-02	-7.109609e-02	-7.109609e-02
7.136107597034425e-02	5.000000e+00	1.301227e-01	8.980330e-02	4.490165e-02	-1.576863e+00	-1.818989e-12	-4.490165e-02	4.490165e-02	-4.490165e-02	-4.490165e-02	-4.490165e-02
7.233763847034425e-02	5.000000e+00	6.979444e-02	4.962232e-02	2.481116e-02	-1.617044e+00	-1.818989e-12	-2.481116e-02	2.481116e-02	-2.481116e-02	-2.481116e-02	-2.481116e-02
7.331420097034425e-02	5.000000e+00	2.802240e-02	2.180050e-02	1.090025e-02	-1.644866e+00	-1.818989e-12	-1.090025e-02	1.090025e-02	-1.090025e-02	-1.090025e-02	-1.090025e-02
7.429076347034425e-02	5.000000e+00	4.963752e-03	6.442533e-03	3.221266e-03	-1.660224e+00	-1.818989e-12	-3.221266e-03	3.221266e-03	-3.221266e-03	-3.221266e-03	-3.221266e-03
7.526732597034425e-02	5.000000e+00	7.052967e-04	3.606234e-03	1.803117e-03	-1.663060e+00	-1.818989e-12	-1.803117e-03	1.803117e-03	-1.803117e-03	-1.803117e-03	-1.803117e-03
7.624388847034425e-02	5.000000e+00	1.526306e-02	1.330228e-02	6.651138e-03	-1.653364e+00	-1.818989e-12	-6.651138e-03	6.651138e-03	-6.651138e-03	-6.651138e-03	-6.651138e-03
7.722045097034425e-02	5.000000e+00	4.858224e-02	3.549416e-02	1.774708e-02	-1.631173e+00	-1.818989e-12	-1.774708e-02	1.774708e-02	-1.774708e-02	-1.774708e-02	-1.774708e-02
7.819701347034425e-02	5.000000e+00	1.005374e-01	7.009838e-02	3.504919e-02	-1.596568e+00	-1.818989e-12	-3.504919e-02	3.504919e-02	-3.504919e-02	-3.504919e-02	-3.504919e-02
7.917357597034425e-02	5.000000e+00	1.709331e-01	1.169847e-01	5.849233e-02	-1.549682e+00	-1.818989e-12	-5.849233e-02	5.849233e-02	-5.849233e-02	-5.849233e-02	-5.849233e-02
8.015013847034425e-02	5.000000e+00	2.595043e-01	1.759766e-01	8.798828e-02	-1.490690e+00	-1.705303e-12	-8.798828e-02	8.798828e-02	-8.798828e-02	-8.798828e-02	-8.798828e-02
8.112670097034425e-02	5.000000e+00	3.659177e-01	2.468520e-01	1.234260e-01	-1.419815e+00	-1.477929e-12	-1.234260e-01	1.234260e-01	-1.234260e-01	-1.234260e-01	-1.234260e-01
8.210326347034425e-02	5.000000e+00	4.897726e-01	3.293444e-01	1.646722e-01	-1.337322e+00	-1.364242e-12	-1.646722e-01	1.646722e-01	-1.646722e-01	-1.646722e-01	-1.646722e-01
8.307982597034425e-02	5.000000e+00	6.306031e-01	4.231430e-01	2.115715e-01	-1.243524e+00	-1.364242e-12	-2.115715e-01	2.115715e-01	-2.115715e-01	-2.115715e-01	-2.115715e-01
8.405638847034425e-02	5.000000e+00	7.878790e-01	5.278949e-01	2.639475e-01	-1.138772e+00	-1.364242e-12	-2.639475e-01	2.639475e-01	-2.639475e-01	-2.639475e-01	-2.639475e-01
8.503295097034425e-02	5.000000e+00	9.610084e-01	6.432059e-01	3.216029e-01	-1.023461e+00	-1.250555e-12	-3.216029e-01	3.216029e-01	-3.216029e-01	-3.216029e-01	-3.216029e-01
8.600951347034425e-02	5.000000e+00	1.149340e+00	7.686419e-01	3.843209e-01	-8.980248e-01	-1.023182e-12	-3.843209e-01	3.843209e-01	-3.843209e-01	-3.843209e-01	-3.843209e-01
8.698607597034425e-02	5.000000e+00	1.352164e+00	9.037308e-01	4.518654e-01	-7.629359e-01	-9.094947e-13	-4.518654e-01	4.518654e-01	-4.518654e-01	-4.518654e-01	-4.518654e-01
8.796263847034425e-02	5.000000e+00	1.568718e+00	1.047964e+00	5.239821e-01	-6.187025e-01	-9.094947e-13	-5.239821e-01	5.239821e-01	-5.239821e-01	-5.239821e-01	-5.239821e-01
8.893920097034425e-02	5.000000e+00	1.798186e+00	1.200799e+00	6.003996e-01	-4.658675e-01	-7.958079e-13	-6.003996e-01	6.003996e-01	-6.003996e-01	-6.003996e-01	-6.003996e-01
8.991576347034425e-02	5.000000e+00	2.039706e+00	1.361661e+00	6.808303e-01	-3.050061e-01	-5.684342e-13	-6.808303e-01	6.808303e-01	-6.808303e-01	-6.808303e-01	-6.808303e-01
9.089232597034425e-02	5.000000e+00	2.292367e+00	1.529943e+00	7.649714e-01	-1.367237e-01	-4.547474e-13	-7.649714e-01	7.649714e-01	-7.649714e-01	-7.649714e-01	-7.649714e-01
9.186888847034425e-02	5.000000e+00	2.555219e+00	1.705013e+00	8.525064e-01	3.834613e-02	-3.410605e-13	-8.525064e-01	8.525064e-01	-8.525064e-01	-8.525064e-01	-8.525064e-01
9.284545097034425e-02	5.000000e+00	2.827272e+00	1.886211e+00	9.431056e-01	2.195446e-01	-1.136868e-13	-9.431056e-01	9.431056e-01	-9.431056e-01	-9.431056e-01	-9.431056e-01
9.382201347034425e-02	5.000000e+00	3.107504e+00	2.072856e+00	1.036428e+00	4.061898e-01	0.000000e+00	-1.036428e+00	1.036428e+00	-1.036428e+00	-1.036428e+00	-1.036428e+00
9.479857597034425e-02	5.000000e+00	3.394858e+00	2.264246e+00	1.132123e+00	5.975791e-01	0.000000e+00	-1.132123e+00	1.132123e+00	-1.132123e+00	-1.132123e+00	-1.132123e+00
9.675170097034425e-02	5.000000e+00	3.986587e+00	2.658360e+00	1.329180e+00	9.916936e-01	6.821210e-13	-1.329180e+00	1.329180e+00	-1.329180e+00	-1.329180e+00	-1.329180e+00
9.786777239891567e-02	5.000000e+00	4.336436e+00	2.891373e+00	1.445687e+00	1.224707e+00	8.624800e-13	-1.445687e+00	1.445687e+00	-1.445687e+00	-1.445687e+00	-1.445687e+00
9.898384382748711e-02	5.000000e+00	4.685274e+00	3.123714e+00	1.561857e+00	1.457047e+00	1.036856e-12	-1.561857e+00	1.561857e+00	-1.561857e+00	-1.561857e+00	-1.561857e+00
1.000999152560585e-01	5.000000e+00	5.033103e+00	3.355381e+00	1.677690e+00	1.688714e+00	1.205249e-12	-1.677690e+00	1.677690e+00	-1.677690e+00	-1.677690e+00	-1.677690e+00
1.012159866846300e-01	5.000000e+00	5.379921e+00	3.586375e+00	1.793188e+00	1.919709e+00	1.367659e-12	-1.793188e+00	1.793188e+00	-1.793188e+00	-1.793188e+00	-1.793188e+00
1.023320581132014e-01	5.000000e+00	5.725728e+00	3.816697e+00	1.908348e+00	2.150030e+00	1.524085e-12	-1.908348e+00	1.908348e+00	-1.908348e+00	-1.908348e+00	-1.908348e+00
1.034481295417728e-01	5.000000e+00	6.070526e+00	4.046345e+00	2.023173e+00	2.379679e+00	1.674529e-12	-2.023173e+00	2.023173e+00	-2.023173e+00	-2.023173e+00	-2.023173e+00
1.045642009703442e-01	5.000000e+00	6.414313e+00	4.275321e+00	2.137661e+00	2.608654e+00	1.818989e-12	-2.137661e+00	2.137661e+00	-2.137661e+00	-2.137661e+00	-2.137661e+00
1.074938884703442e-01	5.000000e+00	7.268241e+00	4.844071e+00	2.422036e+00	3.177405e+00	2.273737e-12	-2.422036e+00	2.422036e+00	-2.422036e+00	-2.422036e+00	-2.422036e+00
1.104235759703442e-01	5.000000e+00	8.045529e+00	5.361775e+00	2.680888e+00	3.695109e+00	3.637979e-12	-2.680888e+00	2.680888e+00	-2.680888e+00	-2.680888e+00	-2.680888e+00
1.133532634703442e-01	5.000000e+00	8.719911e+00	5.810940e+00	2.905470e+00	4.144274e+00	4.092726e-12	-2.905470e+00	2.905470e+00	-2.905470e+00	-2.905470e+00	-2.905470e+00
1.162829509703442e-01	5.000000e+00	9.268600e+00	6.176389e+00	3.088195e+00	4.509723e+00	4.092726e-12	-3.088195e+00	3.088195e+00	-3.088195e+00	-3.088195e+00	-3.088195e+00
1.192126384703442e-01	5.000000e+00	9.673059e+00	6.445774e+00	3.222887e+00	4.779108e+00	3.183231e-12	-3.222887e+00	3.222887e+00	-3.222887e+00	-3.222887e+00	-3.222887e+00
1.221423259703442e-01	5.000000e+00	9.919619e+00	6.609993e+00	3.304996e+00	4.943326e+00	3.183231e-12	-3.304996e+00	3.304996e+00	-3.304996e+00	-3.304996e+00	-3.304996e+00
1.240954509703442e-01	5.000000e+00	9.991927e+00	6.658153e+00	3.329077e+00	4.991487e+00	3.183231e-12	-3.329077e+00	3.329077e+00	-3.329077e+00	-3.329077e+00	-3.329077e+00
1.260485759703442e-01	5.000000e+00	9.989152e+00	6.656305e+00	3.328153e+00	4.989638e+00	3.183231e-12	-3.328153e+00	3.328153e+00	-3.328153e+00	-3.328153e+00	-3.328153e+00
1.289782634703442e-01	5.000000e+00	9.844609e+00	6.560034e+00	3.280017e+00	4.893367e+00	3.183231e-12	-3.280017e+00	3.280017e+00	-3.280017e+00	-3.280017e+00	-3.280017e+00
1.319079509703442e-01	5.000000e+00	9.536372e+00	6.354736e+00	3.177368e+00	4.688069e+00	3.637979e-12	-3.177368e+00	3.177368e+00	-3.177368e+00	-3.177368e+00	-3.177368e+00
1.348376384703442e-01	5.000000e+00	9.074856e+00	6.047347e+00	3.023674e+00	4.380681e+00	4.092726e-12	-3.023674e+00	3.023674e+00	-3.023674e+00	-3.023674e+00	-3.023674e+00
1.377673259703442e-01	5.000000e+00	8.475653e+00	5.648255e+00	2.824128e+00	3.981588e+00	3.410605e-12	-2.824128e+00	2.824128e+00	-2.824128e+00	-2.824128e+00	-2.824128e+00
1.406970134703442e-01	5.000000e+00	7.759012e+00	5.170944e+00	2.585472e+00	3.504277e+00	3.183231e-12	-2.585472e+00	2.585472e+00	-2.585472e+00	-2.585472e+00	-2.585472e+00
1.436267009703442e-01	5.000000e+00	6.949146e+00	4.631542e+00	2.315771e+00	2.964875e+00	1.818989e-12	-2.315771e+00	2.315771e+00	-2.315771e+00	-2.315771e+00	-2.315771e+00
1.465563884703442e-01	5.000000e+00	6.073421e+00	4.048274e+00	2.024137e+00	2.381608e+00	1.818989e-12	-2.024137e+00	2.024137e+00	-2.024137e+00	-2.024137e+00	-2.024137e+00
1.533923259703442e-01	5.000000e+00	3.942321e+00	2.628877e+00	1.314439e+00	9.622105e-01	6.821210e-13	-1.314439e+00	1.314439e+00	-1.314439e+00	-1.314439e+00	-1.314439e+00
1.553454509703442e-01	5.000000e+00	3.352072e+00	2.235749e+00	1.117874e+00	5.690818e-01	0.000000e+00	-1.117874e+00	1.117874e+00	-1.117874e+00	-1.117874e+00	-1.117874e+00
1.563220134703442e-01	5.000000e+00	3.065701e+00	2.045014e+00	1.022507e+00	3.783473e-01	0.000000e+00	-1.022507e+00	1.022507e+00	-1.022507e+00	-1.022507e+00	-1.022507e+00
1.572985759703442e-01	5.000000e+00	2.786610e+00	1.859128e+00	9.295642e-01	1.924618e-01	-1.136868e-13	-9.295642e-01	9.295642e-01	-9.295642e-01	-9.295642e-01	-9.295642e-01
1.582751384703442e-01	5.000000e+00	2.515850e+00	1.678792e+00	8.393958e-01	1.212480e-02	-3.410605e-13	-8.393958e-01	8.393958e-01	-8.393958e-01	-8.393958e-01	-8.393958e-01
1.592517009703442e-01	5.000000e+00	2.254439e+00	1.504682e+00	7.523409e-01	-1.619849e-01	-4.547474e-13	-7.523409e-01	7.523409e-01	-7.523409e-01	-7.523409e-01	-7.523409e-01
1.602282634703442e-01	5.000000e+00	2.003362e+00	1.337455e+00	6.687274e-01	-3.292119e-01	-5.684342e-13	-6.687274e-01	6.687274e-01	-6.687274e-01	-6.687274e-01	-6.687274e-01
1.612048259703442e-01	5.000000e+00	1.763564e+00	1.177740e+00	5.888699e-01	-4.889269e-01	-7.958079e-13	-5.888699e-01	5.888699e-01	-5.888699e-01	-5.888699e-01	-5.888699e-01
1.621813884703442e-01	5.000000e+00	1.535947e+00	1.026138e+00	5.130690e-01	-6.405287e-01	-9.094947e-13	-5.130690e-01	5.130690e-01	-5.130690e-01	-5.130690e-01	-5.130690e-01
1.631579509703442e-01	5.000000e+00	1.321368e+00	8.832199e-01	4.416099e-01	-7.834467e-01	-9.094947e-13	-4.416099e-01	4.416099e-01	-4.416099e-01	-4.416099e-01	-4.416099e-01
1.641345134703442e-01	5.000000e+00	1.120635e+00	7.495235e-01	3.747618e-01	-9.171431e-01	-1.136868e-12	-3.747618e-01	3.747618e-01	-3.747618e-01	-3.747618e-01	-3.747618e-01
1.651110759703442e-01	5.000000e+00	9.345026e-01	6.255521e-01	3.127760e-01	-1.041115e+00	-1.591616e-12	-3.127760e-01	3.127760e-01	-3.127760e-01	-3.127760e-01	-3.127760e-01
1.660876384703442e-01	5.000000e+00	7.636718e-01	5.117720e-01	2.558860e-01	-1.154895e+00	-1.818989e-12	-2.558860e-01	2.558860e-01	-2.558860e-01	-2.558860e-01	-2.558860e-01
1.670642009703442e-01	5.000000e+00	6.087856e-01	4.086117e-01	2.043058e-01	-1.258055e+00	-1.818989e-12	-2.043058e-01	2.043058e-01	-2.043058e-01	-2.043058e-01	-2.043058e-01
1.680407634703442e-01	5.000000e+00	4.704269e-01	3.164594e-01	1.582297e-01	-1.350207e+00	-1.818989e-12	-1.582297e-01	1.582297e-01	-1.582297e-01	-1.582297e-01	-1.582297e-01
1.690173259703442e-01	5.000000e+00	3.491166e-01	2.356619e-01	1.178309e-01	-1.431005e+00	-1.818989e-12	-1.178309e-01	1.178309e-01	-1.178309e-01	-1.178309e-01	-1.178309e-01
1.699938884703442e-01	5.000000e+00	2.453111e-01	1.665233e-01	8.326165e-02	-1.500143e+00	-1.818989e-12	-8.326165e-02	8.326165e-02	-8.326165e-02	-8.326165e-02	-8.326165e-02
1.709704509703442e-01	5.000000e+00	1.594011e-01	1.093039e-01	5.465196e-02	-1.557363e+00	-1.818989e-12	-5.465196e-02	5.465196e-02	-5.465196e-02	-5.465196e-02	-5.465196e-02
1.719470134703442e-01	5.000000e+00	9.171015e-02	6.421905e-02	3.210953e-02	-1.602448e+00	-1.818989e-12	-3.210953e-02	3.210953e-02	-3.210953e-02	-3.210953e-02	-3.210953e-02
1.729235759703442e-01	5.000000e+00	4.249284e-02	3.143838e-02	1.571919e-02	-1.635228e+00	-1.818989e-12	-1.571919e-02	1.571919e-02	-1.571919e-02	-1.571919e-02	-1.571919e-02
1.739001384703442e-01	5.000000e+00	1.193446e-02	1.108530e-02	5.542651e-03	-1.655581e+00	-1.818989e-12	-5.542651e-03	5.542651e-03	-5.542651e-03	-5.542651e-03	-5.542651e-03
1.748767009703442e-01	5.000000e+00	1.500434e-04	3.236413e-03	1.618207e-03	-1.663430e+00	-1.818989e-12	-1.618207e-03	1.618207e-03	-1.618207e-03	-1.618207e-03	-1.618207e-03
1.758532634703442e-01	5.000000e+00	7.183929e-03	7.921258e-03	3.960629e-03	-1.658745e+00	-1.818989e-12	-3.960629e-03	3.960629e-03	-3.960629e-03	-3.960629e-03	-3.960629e-03
1.768298259703442e-01	5.000000e+00	3.300965e-02	2.512220e-02	1.256110e-02	-1.641544e+00	-1.818989e-12	-1.256110e-02	1.256110e-02	-1.256110e-02	-1.256110e-02	-1.256110e-02
